!Created with skrf (http://scikit-rf.org).
# GHz S RI R 50.0 
!freq ReS11 ImS11
0.003 0.2791299393862145 -0.0018593862802429384
0.00597 0.2794604062139646 -0.003911782535967122
0.00894 0.27945325916965935 -0.005859769144093625
0.01191 0.2793999522319974 -0.007890756627417837
0.01488 0.2793263096364006 -0.009845742643239029
0.01785 0.27926828299030204 -0.011879750916698073
0.02082 0.27922518260043944 -0.013857784866754017
0.02379 0.27899475789167605 -0.015778355824327527
0.02676 0.27888773008270507 -0.01786564291757612
0.02973 0.27872483160408823 -0.01983312881292437
0.0327 0.27873977654607435 -0.021785210135992168
0.03567 0.27845474185947405 -0.023797315563619643
0.03864 0.2783663216512679 -0.025756791661911724
0.04161 0.27816529888301256 -0.02768687486407437
0.04458 0.27792237507631135 -0.029643564732479866
0.04755 0.27766286714354566 -0.03168449206671563
0.05052 0.2774996499312805 -0.033668103343789446
0.05349 0.2772433832302347 -0.03557097276524744
0.05646 0.2770056388502346 -0.0376602252345353
0.05943 0.2768297818113889 -0.03955344505902068
0.0624 0.27651587705161496 -0.04152435666915877
0.06537 0.2762278190442084 -0.04336317697758315
0.06834 0.2759713969721984 -0.04537554389871075
0.07131 0.2756041578556667 -0.047308669613718185
0.07428 0.27536233029983015 -0.04927470449695942
0.07725 0.27499573168105435 -0.05115433037788007
0.08022 0.2746042923832379 -0.053221396549302816
0.08319 0.27429679780802413 -0.05518544681368666
0.08616 0.27384477419144754 -0.057145873289632554
0.08913 0.2734699933914967 -0.058967006738313545
0.0921 0.27306126373175726 -0.06096819867305274
0.09507 0.2726281184012318 -0.06292173493379472
0.09804 0.27230396030403975 -0.0647642813298729
0.10101 0.27182492673162406 -0.06667612921316413
0.10398 0.2713278212127329 -0.06861151249490226
0.10695 0.2708612536658406 -0.07053983928881832
0.10992 0.27040877908542377 -0.07246093086315435
0.11289 0.26989894054607055 -0.07444216439379696
0.11586 0.26945435487128155 -0.07632435516120874
0.11883 0.2688809357021836 -0.07815330662513587
0.1218 0.2684567882628562 -0.08012225805945346
0.12477 0.26787007799813567 -0.0820129578873318
0.12774 0.26733875077932523 -0.08387432466995909
0.13071 0.26673370089754284 -0.08576313155845297
0.13368 0.26621959539751133 -0.0876685023869125
0.13665 0.26550378221117743 -0.08957087663852362
0.13962 0.26490478361035086 -0.09137888946747676
0.14259 0.26427088272231675 -0.09322575089480958
0.14556 0.26371939339524075 -0.0952170814168051
0.14853 0.26308184535341755 -0.09698909156908499
0.1515 0.26244496991563276 -0.09875226967044304
0.15447 0.2618239259327317 -0.10085758035088588
0.15744 0.2611293588870933 -0.10258363242537455
0.16041 0.26039611259875867 -0.10448880747864973
0.16338 0.2597121405561566 -0.10631049244010136
0.16635 0.25885934781061093 -0.10820147176775671
0.16932 0.25826965925457157 -0.11007218760437709
0.17229 0.2575468360391296 -0.11187948328776168
0.17526 0.25673187699299055 -0.11361837554159282
0.17823 0.25608113345259453 -0.11546205519160264
0.1812 0.2552618242792323 -0.117363363303907
0.18417 0.25456690459016 -0.11914842548604868
0.18714 0.2536571502658344 -0.12083368419512487
0.19011 0.25294291234142724 -0.12276396836333167
0.19308 0.25201982372460163 -0.12463576648798166
0.19605 0.25120909606403297 -0.12634648735115153
0.19902 0.2503706804456136 -0.12810973153246105
0.20199 0.24957952425275456 -0.12980549555270832
0.20496 0.2487651288597391 -0.13161631484034714
0.20793 0.24782013945760703 -0.13345766270577314
0.2109 0.2469457787231174 -0.135158811895646
0.21387 0.2459080346962916 -0.13699219451628628
0.21684 0.24510878976639214 -0.13860836850092922
0.21981 0.24411055432831347 -0.14042170398564563
0.22278 0.24326483136114135 -0.14215149984785572
0.22575 0.2422474650788875 -0.14377334324533178
0.22872 0.2412618382630831 -0.14556160306311616
0.23169 0.24019741174172882 -0.1472332816351494
0.23466 0.23928130296449715 -0.14889400459275415
0.23763 0.23843015234334386 -0.150665312808348
0.2406 0.23729835743510055 -0.15228327615664192
0.24357 0.23631887008742358 -0.15408682495340809
0.24654 0.23531277630269865 -0.1556837175931254
0.24951 0.23417923107646865 -0.1573665540535932
0.25248 0.23319843282017405 -0.15901386035355547
0.25545 0.2321995822950319 -0.16069749229415808
0.25842 0.2310014805792515 -0.1623501087002707
0.26139 0.23004838443923756 -0.1639778634814249
0.26436 0.2289449466449432 -0.16553053653919764
0.26733 0.22781777414405588 -0.16720703737182593
0.2703 0.22663267022777212 -0.16889887349146734
0.27327 0.22561868333510823 -0.17047268466498522
0.27624 0.22444230444881197 -0.17213715113222725
0.27921 0.2232391675486265 -0.17367010394542712
0.28218 0.22222452536830475 -0.17527335720263046
0.28515 0.22096327904821017 -0.1768489811343973
0.28812 0.21977286378529257 -0.17841420655193896
0.29109 0.21855024257945607 -0.17996780447545177
0.29406 0.21752401286018624 -0.18160520548938727
0.29703 0.21617321811832166 -0.18313272583160978
0.3 0.21510141893012114 -0.1847814348486152
