!Created with skrf (http://scikit-rf.org).
# Hz S RI R 50.0 
!freq ReS11 ImS11
3000000.0 0.2794832636200035 -0.001774178166400888
5970000.0 0.2791804029311824 -0.004094900213357099
8940000.0 0.27922717619505627 -0.0057840918411208465
11910000.0 0.27937393778900554 -0.00804188418924763
14880000.0 0.2791998604866168 -0.010124820649847668
17850000.0 0.2790355701371396 -0.011803616924763534
20820000.0 0.2791248491635316 -0.013918445353714799
23790000.0 0.279083037411957 -0.015769551631964248
26760000.0 0.278966957230766 -0.017754105986297383
29730000.0 0.2789285335907623 -0.019875930084499987
32700000.0 0.27869083759823243 -0.0218603632890286
35670000.0 0.27848990247904787 -0.023713814717950855
38640000.0 0.278238996643545 -0.0257823029754318
41610000.0 0.2781312492827717 -0.02776165722681677
44580000.0 0.27787580476617574 -0.029551609090047372
47550000.0 0.27759241808087864 -0.031551453396339066
50520000.0 0.2776846623478294 -0.03357161357149635
53490000.0 0.2772339538577574 -0.03541709309950271
56460000.0 0.2769917456067157 -0.037630042698429206
59430000.0 0.2767505349114656 -0.03948603293630901
62400000.0 0.2765635651695816 -0.04132051087417591
65370000.0 0.27604330874791516 -0.04323935801104081
68340000.0 0.2757966633242856 -0.04549122539074068
71310000.0 0.27546360008464854 -0.04715756720253489
74280000.0 0.2753604532015786 -0.04903826340755838
77250000.0 0.27468029427135415 -0.05139649701681794
80220000.0 0.27452685560370615 -0.05315570847972885
83190000.0 0.2740405139979967 -0.05510386895416662
86160000.0 0.2738911829188266 -0.05735205180037336
89130000.0 0.2735216288344824 -0.05892235421094832
92100000.0 0.2730688326426743 -0.06059873439459938
95070000.0 0.27271701902768714 -0.06296265872917942
98040000.0 0.2720557962428704 -0.0646302735201552
101010000.0 0.2716076649151133 -0.06675923270145952
103980000.0 0.2712612526930602 -0.06873317401439874
106950000.0 0.27072005092759394 -0.07045185499769847
109920000.0 0.27054869593080627 -0.07240616231988427
112890000.0 0.269873838017599 -0.0742824689159508
115860000.0 0.26951514855260117 -0.07612366947415963
118830000.0 0.268735478305583 -0.07806484011545967
121800000.0 0.26811603945534346 -0.07982173191149967
124770000.0 0.2678151007644637 -0.08174796177785637
127740000.0 0.2671164694252168 -0.08370355664266285
130710000.0 0.2667590820679783 -0.08560162643523617
133680000.0 0.2660139867621089 -0.08773978177358846
136650000.0 0.2656443230668937 -0.08925540392815842
139620000.0 0.26481905778901044 -0.09119622638425524
142590000.0 0.26445196333214577 -0.0933125104535318
145560000.0 0.2636080855348409 -0.0951732232592563
148530000.0 0.26284652361752914 -0.09676418332266848
151500000.0 0.2626420470021349 -0.09862568587007946
154470000.0 0.26183503794412555 -0.10034840060126811
157440000.0 0.26119499537194896 -0.10244994016309884
160410000.0 0.26055196912792966 -0.10428484599809143
163380000.0 0.259585191827323 -0.10618333632798505
166350000.0 0.2591813256232935 -0.10796467622526915
169320000.0 0.2582044416664259 -0.10954045086452045
172290000.0 0.2577835438034955 -0.11134569372661893
175260000.0 0.25651869855267034 -0.11347019896076496
178230000.0 0.25588003443528223 -0.11501595044857049
181200000.0 0.25527919507186747 -0.11700952912772385
184170000.0 0.254622817245511 -0.11914196378468268
187140000.0 0.2532009901578794 -0.12086457899697675
190110000.0 0.25299967272065343 -0.12267101935855362
193080000.0 0.25160679076358927 -0.12431462413414353
196050000.0 0.2512261292238471 -0.125955255641643
199020000.0 0.2500474626570608 -0.1276128252914037
201990000.0 0.24995410438454482 -0.12988006532222995
204960000.0 0.24883312294206245 -0.13119063134238235
207930000.0 0.24742965820940102 -0.13331592336860074
210900000.0 0.2467532823589801 -0.13495651429038574
213870000.0 0.24588364496983045 -0.1367614304373641
216840000.0 0.24478151496877948 -0.13840721350290283
219810000.0 0.2440237386648472 -0.14030942257254023
222780000.0 0.24291123193710965 -0.14189461538967227
225750000.0 0.24208921330887737 -0.1436507262322163
228720000.0 0.24142967077408484 -0.14523125904223447
231690000.0 0.24017139342229862 -0.14732001978695142
234660000.0 0.23938822591244288 -0.14859473107862503
237630000.0 0.23826808678730405 -0.15022243323158724
240600000.0 0.23759433995586407 -0.1522633378585162
243570000.0 0.23616841415036233 -0.15383784157014413
246540000.0 0.23525792507518614 -0.1554547429002865
249510000.0 0.2343335871184399 -0.15726756448259224
252480000.0 0.2327301500088991 -0.15897295425778785
255450000.0 0.23176996657297247 -0.1605162759870251
258420000.0 0.23120962933455558 -0.16172173083431832
261390000.0 0.23022786094359368 -0.16410185396393503
264360000.0 0.22912065726343792 -0.16544855152753551
267330000.0 0.22766325918342192 -0.16737093721590637
270300000.0 0.22656206482125946 -0.16843012411185337
273270000.0 0.22576789027346128 -0.17000907964825776
276240000.0 0.22434102514613344 -0.17164148554299397
279210000.0 0.22319308473384727 -0.17354091221854548
282180000.0 0.22251747844659311 -0.17532910103660074
285150000.0 0.22080189230982344 -0.17704258892293803
288120000.0 0.2196948077511528 -0.17779499885968028
291090000.0 0.21800657632887388 -0.17959131030785122
294060000.0 0.2169315572193652 -0.1818873082067392
297030000.0 0.21626674760578515 -0.18329949696195943
300000000.0 0.21559073182502947 -0.18470475607017578
