!
! C:\data\NanoVNA\8753 calibrated attenutator attempt 2.S1P
!
! Touchstone 1.1 file saved by VNA.EXE V1.60 (www.ke5fx.com/gpib/readme.htm)
! 26/08/2019 9:01:45 p.m.
!
!    Source: HEWLETT PACKARD,8753C,0,4.12
!  Min freq: 3.000000E+006 Hz
!  Max freq: 3.000000E+008 Hz
!    Points: 201
!    Params: S11
!
!!!!!
# GHZ S MA R 50
0.0030000000000000 0.279396 -0.419306 
0.0044850000000000 0.279589 -0.634787 
0.0059700000000000 0.279402 -0.822970 
0.0074550000000000 0.279298 -1.054942 
0.0089400000000000 0.279394 -1.251757 
0.0104250000000000 0.279386 -1.445860 
0.0119100000000000 0.279336 -1.646499 
0.0133950000000000 0.279365 -1.840446 
0.0148800000000000 0.279505 -2.039826 
0.0163650000000000 0.279372 -2.234953 
0.0178500000000000 0.279386 -2.457203 
0.0193350000000000 0.279276 -2.655583 
0.0208200000000000 0.279337 -2.849277 
0.0223050000000000 0.279383 -3.090088 
0.0237900000000000 0.279366 -3.256384 
0.0252750000000000 0.279367 -3.472678 
0.0267600000000000 0.279388 -3.691889 
0.0282450000000000 0.279540 -3.877943 
0.0297300000000000 0.279399 -4.093198 
0.0312150000000000 0.279401 -4.312790 
0.0327000000000000 0.279460 -4.509557 
0.0341850000000000 0.279331 -4.687486 
0.0356700000000000 0.279338 -4.929207 
0.0371550000000000 0.279420 -5.119360 
0.0386400000000000 0.279390 -5.327298 
0.0401250000000000 0.279593 -5.533865 
0.0416100000000000 0.279391 -5.720245 
0.0430950000000000 0.279467 -5.904210 
0.0445800000000000 0.279557 -6.138159 
0.0460650000000000 0.279462 -6.335355 
0.0475500000000000 0.279441 -6.546800 
0.0490350000000000 0.279495 -6.750221 
0.0505200000000000 0.279374 -6.964323 
0.0520050000000000 0.279534 -7.127344 
0.0534900000000000 0.279423 -7.369897 
0.0549750000000000 0.279388 -7.531781 
0.0564600000000000 0.279341 -7.788848 
0.0579450000000000 0.279494 -7.992968 
0.0594300000000000 0.279362 -8.202244 
0.0609150000000000 0.279464 -8.366795 
0.0624000000000000 0.279466 -8.603932 
0.0638850000000000 0.279591 -8.812015 
0.0653700000000000 0.279474 -9.002550 
0.0668550000000000 0.279458 -9.199509 
0.0683400000000000 0.279508 -9.435583 
0.0698250000000000 0.279464 -9.627411 
0.0713100000000000 0.279561 -9.817583 
0.0727950000000000 0.279547 -10.037145 
0.0742800000000000 0.279458 -10.237410 
0.0757650000000000 0.279516 -10.441927 
0.0772500000000000 0.279623 -10.628685 
0.0787350000000000 0.279574 -10.843835 
0.0802200000000000 0.279451 -11.058989 
0.0817050000000000 0.279637 -11.252296 
0.0831900000000000 0.279569 -11.452828 
0.0846750000000000 0.279591 -11.662547 
0.0861600000000000 0.279675 -11.837784 
0.0876450000000000 0.279738 -12.049139 
0.0891300000000000 0.279691 -12.271811 
0.0906150000000000 0.279551 -12.476570 
0.0921000000000000 0.279676 -12.691896 
0.0935850000000000 0.279724 -12.904425 
0.0950700000000000 0.279869 -13.102789 
0.0965550000000000 0.279653 -13.283304 
0.0980400000000000 0.279844 -13.502050 
0.0995250000000000 0.279663 -13.707183 
0.1010100000000000 0.279722 -13.900553 
0.1024950000000000 0.279696 -14.098406 
0.1039800000000000 0.279736 -14.309126 
0.1054650000000000 0.279783 -14.509919 
0.1069500000000000 0.279769 -14.685029 
0.1084350000000000 0.279804 -14.932023 
0.1099200000000000 0.279790 -15.126863 
0.1114050000000000 0.279862 -15.323616 
0.1128900000000000 0.279847 -15.535148 
0.1143750000000000 0.279801 -15.745388 
0.1158600000000000 0.279999 -15.922234 
0.1173450000000000 0.279908 -16.151758 
0.1188300000000000 0.279841 -16.360802 
0.1203150000000000 0.279968 -16.548495 
0.1218000000000000 0.279977 -16.740219 
0.1232850000000000 0.280014 -16.969587 
0.1247700000000000 0.279977 -17.167931 
0.1262550000000000 0.280001 -17.352720 
0.1277400000000000 0.279839 -17.569470 
0.1292250000000000 0.280090 -17.782485 
0.1307100000000000 0.279950 -17.988567 
0.1321950000000000 0.280075 -18.157570 
0.1336800000000000 0.280154 -18.365869 
0.1351650000000000 0.280116 -18.569180 
0.1366500000000000 0.280145 -18.771477 
0.1381350000000000 0.280273 -18.973540 
0.1396200000000000 0.280076 -19.172344 
0.1411050000000000 0.280087 -19.386535 
0.1425900000000000 0.280134 -19.591686 
0.1440750000000000 0.280163 -19.811678 
0.1455600000000000 0.280241 -19.975107 
0.1470450000000000 0.280139 -20.208674 
0.1485300000000000 0.280313 -20.395063 
0.1500150000000000 0.280163 -20.633109 
0.1515000000000000 0.280304 -20.815595 
0.1529850000000000 0.280321 -21.007959 
0.1544700000000000 0.280390 -21.226446 
0.1559550000000000 0.280454 -21.405466 
0.1574400000000000 0.280406 -21.610353 
0.1589250000000000 0.280260 -21.813565 
0.1604100000000000 0.280347 -22.008154 
0.1618950000000000 0.280365 -22.249022 
0.1633800000000000 0.280558 -22.435049 
0.1648650000000000 0.280451 -22.626337 
0.1663500000000000 0.280469 -22.820801 
0.1678350000000000 0.280610 -23.048867 
0.1693200000000000 0.280699 -23.257882 
0.1708050000000000 0.280491 -23.442509 
0.1722900000000000 0.280685 -23.673429 
0.1737750000000000 0.280504 -23.859961 
0.1752600000000000 0.280614 -24.071631 
0.1767450000000000 0.280537 -24.242527 
0.1782300000000000 0.280652 -24.467938 
0.1797150000000000 0.280698 -24.675947 
0.1812000000000000 0.280711 -24.859980 
0.1826850000000000 0.280634 -25.069956 
0.1841700000000000 0.280787 -25.282488 
0.1856550000000000 0.280651 -25.471376 
0.1871400000000000 0.280764 -25.677944 
0.1886250000000000 0.280805 -25.881389 
0.1901100000000000 0.280768 -26.065121 
0.1915950000000000 0.280720 -26.278128 
0.1930800000000000 0.280758 -26.468958 
0.1945650000000000 0.280853 -26.681995 
0.1960500000000000 0.280980 -26.871179 
0.1975350000000000 0.280906 -27.102328 
0.1990200000000000 0.280934 -27.297126 
0.2005050000000000 0.281151 -27.517693 
0.2019900000000000 0.281033 -27.682978 
0.2034750000000000 0.280944 -27.882383 
0.2049600000000000 0.281175 -28.119865 
0.2064450000000000 0.280982 -28.322773 
0.2079300000000000 0.281048 -28.504703 
0.2094150000000000 0.281079 -28.681956 
0.2109000000000000 0.281061 -28.911092 
0.2123850000000000 0.281343 -29.101390 
0.2138700000000000 0.281269 -29.287815 
0.2153550000000000 0.281283 -29.511061 
0.2168400000000000 0.281297 -29.748939 
0.2183250000000000 0.281330 -29.913511 
0.2198100000000000 0.281209 -30.141288 
0.2212950000000000 0.281424 -30.324411 
0.2227800000000000 0.281313 -30.555758 
0.2242650000000000 0.281408 -30.728522 
0.2257500000000000 0.281375 -30.929655 
0.2272350000000000 0.281624 -31.140243 
0.2287200000000000 0.281580 -31.338086 
0.2302050000000000 0.281384 -31.540835 
0.2316900000000000 0.281531 -31.757844 
0.2331750000000000 0.281582 -31.924915 
0.2346600000000000 0.281589 -32.134725 
0.2361450000000000 0.281557 -32.316743 
0.2376300000000000 0.281751 -32.538077 
0.2391150000000000 0.281558 -32.732809 
0.2406000000000000 0.281758 -32.944785 
0.2420850000000000 0.281769 -33.141454 
0.2435700000000000 0.281719 -33.335461 
0.2450550000000000 0.281803 -33.536043 
0.2465400000000000 0.281845 -33.783842 
0.2480250000000000 0.281923 -33.941220 
0.2495100000000000 0.281985 -34.153545 
0.2509950000000000 0.282024 -34.358122 
0.2524800000000000 0.281870 -34.526252 
0.2539650000000000 0.282021 -34.761414 
0.2554500000000000 0.282082 -34.952910 
0.2569350000000000 0.282138 -35.141796 
0.2584200000000000 0.281989 -35.356751 
0.2599050000000000 0.282153 -35.542361 
0.2613900000000000 0.282226 -35.749063 
0.2628750000000000 0.282343 -35.945873 
0.2643600000000000 0.282206 -36.149909 
0.2658450000000000 0.282271 -36.366907 
0.2673300000000000 0.282344 -36.548485 
0.2688150000000000 0.282343 -36.760896 
0.2703000000000000 0.282343 -36.993149 
0.2717850000000000 0.282480 -37.142861 
0.2732700000000000 0.282404 -37.337364 
0.2747550000000000 0.282595 -37.561040 
0.2762400000000000 0.282504 -37.755004 
0.2777250000000000 0.282471 -37.968081 
0.2792100000000000 0.282535 -38.150447 
0.2806950000000000 0.282513 -38.374663 
0.2821800000000000 0.282680 -38.541464 
0.2836650000000000 0.282613 -38.762232 
0.2851500000000000 0.282688 -38.968452 
0.2866350000000000 0.282607 -39.169031 
0.2881200000000000 0.282752 -39.356629 
0.2896050000000000 0.282865 -39.549926 
0.2910900000000000 0.282816 -39.750962 
0.2925750000000000 0.282836 -39.948838 
0.2940600000000000 0.282860 -40.146696 
0.2955450000000000 0.282845 -40.367945 
0.2970300000000000 0.282876 -40.537256 
0.2985150000000000 0.282842 -40.742777 
0.3000000000000000 0.283018 -40.944738 
