!
! C:\data\NanoVNA\8753 attenuator.S1P
!
! Touchstone 1.1 file saved by VNA.EXE V1.60 (www.ke5fx.com/gpib/readme.htm)
! 22/08/2019 8:33:32 a.m.
!
!    Source: HEWLETT PACKARD,8753C,0,4.12
!  Min freq: 3.000000E+006 Hz
!  Max freq: 3.000000E+008 Hz
!    Points: 101
!    Params: S11
!
!!!!!
# GHZ S MA R 50
0.0030000000000000 0.195235 -3.429963 
0.0059700000000000 0.192263 -2.665642 
0.0089400000000000 0.191909 -2.745813 
0.0119100000000000 0.191795 -3.190196 
0.0148800000000000 0.192078 -3.538857 
0.0178500000000000 0.192789 -5.231381 
0.0208200000000000 0.193210 -5.863226 
0.0237900000000000 0.193378 -6.528916 
0.0267600000000000 0.193699 -7.259097 
0.0297300000000000 0.193957 -7.965637 
0.0327000000000000 0.185338 -11.126764 
0.0356700000000000 0.185506 -11.924582 
0.0386400000000000 0.185767 -12.712064 
0.0416100000000000 0.185988 -13.502678 
0.0445800000000000 0.186226 -14.307239 
0.0475500000000000 0.186539 -14.752389 
0.0505200000000000 0.186834 -15.552663 
0.0534900000000000 0.187048 -16.360788 
0.0564600000000000 0.187264 -17.194723 
0.0594300000000000 0.187481 -17.991078 
0.0624000000000000 0.187591 -18.815189 
0.0653700000000000 0.187747 -19.617486 
0.0683400000000000 0.187876 -20.445488 
0.0713100000000000 0.187976 -21.270253 
0.0742800000000000 0.188135 -22.096532 
0.0772500000000000 0.188164 -22.907577 
0.0802200000000000 0.188253 -23.755961 
0.0831900000000000 0.188364 -24.590691 
0.0861600000000000 0.188365 -25.415053 
0.0891300000000000 0.188419 -26.226813 
0.0921000000000000 0.188336 -27.117267 
0.0950700000000000 0.188395 -27.945281 
0.0980400000000000 0.188532 -28.745166 
0.1010100000000000 0.188544 -29.560831 
0.1039800000000000 0.188575 -30.384911 
0.1069500000000000 0.188573 -31.216606 
0.1099200000000000 0.188607 -32.037816 
0.1128900000000000 0.188615 -32.871139 
0.1158600000000000 0.188672 -33.691348 
0.1188300000000000 0.188657 -34.494663 
0.1218000000000000 0.188753 -35.321768 
0.1247700000000000 0.188794 -36.140074 
0.1277400000000000 0.188776 -36.956969 
0.1307100000000000 0.188833 -37.776933 
0.1336800000000000 0.188887 -38.591492 
0.1366500000000000 0.188859 -39.423274 
0.1396200000000000 0.188891 -40.222773 
0.1425900000000000 0.188915 -41.030713 
0.1455600000000000 0.189031 -41.860534 
0.1485300000000000 0.189068 -42.656598 
0.1515000000000000 0.189043 -43.461199 
0.1544700000000000 0.189144 -44.320142 
0.1574400000000000 0.189077 -45.117700 
0.1604100000000000 0.189054 -45.946690 
0.1633800000000000 0.189095 -46.754235 
0.1663500000000000 0.189038 -47.589266 
0.1693200000000000 0.189056 -48.412541 
0.1722900000000000 0.189071 -49.218405 
0.1752600000000000 0.189084 -50.016829 
0.1782300000000000 0.198316 -48.396660 
0.1812000000000000 0.198291 -49.228227 
0.1841700000000000 0.198344 -50.033861 
0.1871400000000000 0.198223 -50.834260 
0.1901100000000000 0.198306 -51.656557 
0.1930800000000000 0.198147 -52.501363 
0.1960500000000000 0.198130 -53.294243 
0.1990200000000000 0.198106 -54.105004 
0.2019900000000000 0.198132 -54.896272 
0.2049600000000000 0.198167 -55.718938 
0.2079300000000000 0.198156 -56.543050 
0.2109000000000000 0.198138 -57.347743 
0.2138700000000000 0.198076 -58.186905 
0.2168400000000000 0.198099 -58.971909 
0.2198100000000000 0.198049 -59.789147 
0.2227800000000000 0.198137 -60.597181 
0.2257500000000000 0.198063 -61.377544 
0.2287200000000000 0.198073 -62.198190 
0.2316900000000000 0.197917 -63.010206 
0.2346600000000000 0.197898 -63.810333 
0.2376300000000000 0.198015 -64.618760 
0.2406000000000000 0.197915 -65.428636 
0.2435700000000000 0.197980 -66.255205 
0.2465400000000000 0.197956 -67.045854 
0.2495100000000000 0.197876 -67.868361 
0.2524800000000000 0.197878 -68.672397 
0.2554500000000000 0.197879 -69.481450 
0.2584200000000000 0.197794 -70.300683 
0.2613900000000000 0.197839 -71.099004 
0.2643600000000000 0.197769 -71.898475 
0.2673300000000000 0.197719 -72.722222 
0.2703000000000000 0.197624 -73.552655 
0.2732700000000000 0.197665 -74.343194 
0.2762400000000000 0.197620 -75.164916 
0.2792100000000000 0.197510 -75.972333 
0.2821800000000000 0.197539 -76.773682 
0.2851500000000000 0.197446 -77.600639 
0.2881200000000000 0.197425 -78.418674 
0.2910900000000000 0.197422 -79.222031 
0.2940600000000000 0.197567 -80.024054 
0.2970300000000000 0.197505 -80.835676 
0.3000000000000000 0.197569 -81.646791 
