!
! C:\data\NanoVNA\8753 open.S1P
!
! Touchstone 1.1 file saved by VNA.EXE V1.60 (www.ke5fx.com/gpib/readme.htm)
! 22/08/2019 8:31:22 a.m.
!
!    Source: HEWLETT PACKARD,8753C,0,4.12
!  Min freq: 3.000000E+006 Hz
!  Max freq: 3.000000E+008 Hz
!    Points: 101
!    Params: S11
!
!!!!!
# GHZ S MA R 50
0.0030000000000000 0.719808 -1.722534 
0.0059700000000000 0.716216 -1.291580 
0.0089400000000000 0.715467 -1.442052 
0.0119100000000000 0.714383 -1.747863 
0.0148800000000000 0.714590 -1.886898 
0.0178500000000000 0.715766 -3.314388 
0.0208200000000000 0.716117 -3.655230 
0.0237900000000000 0.716037 -4.032552 
0.0267600000000000 0.716172 -4.411251 
0.0297300000000000 0.716171 -4.776213 
0.0327000000000000 0.683054 -7.594305 
0.0356700000000000 0.683060 -8.012809 
0.0386400000000000 0.683051 -8.437096 
0.0416100000000000 0.683131 -8.855530 
0.0445800000000000 0.683377 -9.277243 
0.0475500000000000 0.684078 -9.319450 
0.0505200000000000 0.684454 -9.723551 
0.0534900000000000 0.684717 -10.144965 
0.0564600000000000 0.684993 -10.555993 
0.0594300000000000 0.685054 -10.965544 
0.0624000000000000 0.685174 -11.385004 
0.0653700000000000 0.685343 -11.809294 
0.0683400000000000 0.685392 -12.220555 
0.0713100000000000 0.685635 -12.644428 
0.0742800000000000 0.685664 -13.067633 
0.0772500000000000 0.685597 -13.488194 
0.0802200000000000 0.685804 -13.903912 
0.0831900000000000 0.685901 -14.333020 
0.0861600000000000 0.685796 -14.746155 
0.0891300000000000 0.685893 -15.171498 
0.0921000000000000 0.685588 -15.654627 
0.0950700000000000 0.685597 -16.068008 
0.0980400000000000 0.685853 -16.486797 
0.1010100000000000 0.685893 -16.906307 
0.1039800000000000 0.686029 -17.324227 
0.1069500000000000 0.685929 -17.754578 
0.1099200000000000 0.685830 -18.175342 
0.1128900000000000 0.685980 -18.584872 
0.1158600000000000 0.686108 -19.011979 
0.1188300000000000 0.686198 -19.435794 
0.1218000000000000 0.686304 -19.854685 
0.1247700000000000 0.686504 -20.271653 
0.1277400000000000 0.686454 -20.697353 
0.1307100000000000 0.686693 -21.120506 
0.1336800000000000 0.686867 -21.535740 
0.1366500000000000 0.687180 -21.958280 
0.1396200000000000 0.687290 -22.372110 
0.1425900000000000 0.687517 -22.788503 
0.1455600000000000 0.687724 -23.206603 
0.1485300000000000 0.687967 -23.624428 
0.1515000000000000 0.687969 -24.052292 
0.1544700000000000 0.688175 -24.473812 
0.1574400000000000 0.688171 -24.899010 
0.1604100000000000 0.688234 -25.317415 
0.1633800000000000 0.688526 -25.733681 
0.1663500000000000 0.688662 -26.151727 
0.1693200000000000 0.688508 -26.583224 
0.1722900000000000 0.688692 -27.007873 
0.1752600000000000 0.689077 -27.425262 
0.1782300000000000 0.722594 -25.423293 
0.1812000000000000 0.722700 -25.837920 
0.1841700000000000 0.722897 -26.266499 
0.1871400000000000 0.722984 -26.698087 
0.1901100000000000 0.723097 -27.111173 
0.1930800000000000 0.722801 -27.539848 
0.1960500000000000 0.722992 -27.958249 
0.1990200000000000 0.723023 -28.393131 
0.2019900000000000 0.723183 -28.810367 
0.2049600000000000 0.723349 -29.242663 
0.2079300000000000 0.723481 -29.664240 
0.2109000000000000 0.723505 -30.089605 
0.2138700000000000 0.723746 -30.515035 
0.2168400000000000 0.723803 -30.948011 
0.2198100000000000 0.723920 -31.360177 
0.2227800000000000 0.724276 -31.793496 
0.2257500000000000 0.724405 -32.197018 
0.2287200000000000 0.724540 -32.619083 
0.2316900000000000 0.724417 -33.044709 
0.2346600000000000 0.724486 -33.471184 
0.2376300000000000 0.724621 -33.896202 
0.2406000000000000 0.724797 -34.329727 
0.2435700000000000 0.725062 -34.751591 
0.2465400000000000 0.725115 -35.178306 
0.2495100000000000 0.725218 -35.610268 
0.2524800000000000 0.725320 -36.041552 
0.2554500000000000 0.725305 -36.463924 
0.2584200000000000 0.725482 -36.886287 
0.2613900000000000 0.725438 -37.321110 
0.2643600000000000 0.725582 -37.759160 
0.2673300000000000 0.725593 -38.183352 
0.2703000000000000 0.725421 -38.612380 
0.2732700000000000 0.725609 -39.045935 
0.2762400000000000 0.725569 -39.468634 
0.2792100000000000 0.725495 -39.899377 
0.2821800000000000 0.725537 -40.340941 
0.2851500000000000 0.725527 -40.769899 
0.2881200000000000 0.725660 -41.204508 
0.2910900000000000 0.725865 -41.627137 
0.2940600000000000 0.726080 -42.061319 
0.2970300000000000 0.726457 -42.473488 
0.3000000000000000 0.726477 -42.897675 
