!
! C:\data\NanoVNA\8753 short.S1P
!
! Touchstone 1.1 file saved by VNA.EXE V1.60 (www.ke5fx.com/gpib/readme.htm)
! 22/08/2019 8:32:29 a.m.
!
!    Source: HEWLETT PACKARD,8753C,0,4.12
!  Min freq: 3.000000E+006 Hz
!  Max freq: 3.000000E+008 Hz
!    Points: 101
!    Params: S11
!
!!!!!
# GHZ S MA R 50
0.0030000000000000 0.736241 178.037917 
0.0059700000000000 0.730064 178.363971 
0.0089400000000000 0.728216 178.170040 
0.0119100000000000 0.726265 177.818223 
0.0148800000000000 0.725681 177.642844 
0.0178500000000000 0.727521 176.199832 
0.0208200000000000 0.727494 175.816601 
0.0237900000000000 0.726958 175.422723 
0.0267600000000000 0.726661 175.010353 
0.0297300000000000 0.726409 174.617060 
0.0327000000000000 0.692382 171.764186 
0.0356700000000000 0.692095 171.306081 
0.0386400000000000 0.691763 170.861800 
0.0416100000000000 0.691423 170.411294 
0.0445800000000000 0.691365 169.963890 
0.0475500000000000 0.691389 169.894888 
0.0505200000000000 0.691293 169.458970 
0.0534900000000000 0.691194 169.014528 
0.0564600000000000 0.690992 168.577913 
0.0594300000000000 0.690831 168.141060 
0.0624000000000000 0.690638 167.707904 
0.0653700000000000 0.690524 167.259709 
0.0683400000000000 0.690113 166.820415 
0.0713100000000000 0.689877 166.378080 
0.0742800000000000 0.689577 165.948999 
0.0772500000000000 0.689111 165.504658 
0.0802200000000000 0.688847 165.068586 
0.0831900000000000 0.688624 164.632197 
0.0861600000000000 0.688188 164.194900 
0.0891300000000000 0.687793 163.757084 
0.0921000000000000 0.686900 163.273445 
0.0950700000000000 0.686688 162.842229 
0.0980400000000000 0.686497 162.415625 
0.1010100000000000 0.686169 161.984089 
0.1039800000000000 0.685919 161.558601 
0.1069500000000000 0.685534 161.127885 
0.1099200000000000 0.685245 160.698390 
0.1128900000000000 0.684917 160.271645 
0.1158600000000000 0.684532 159.836197 
0.1188300000000000 0.684259 159.413448 
0.1218000000000000 0.684024 158.990382 
0.1247700000000000 0.683790 158.560421 
0.1277400000000000 0.683511 158.127334 
0.1307100000000000 0.683366 157.708242 
0.1336800000000000 0.683076 157.285424 
0.1366500000000000 0.682976 156.864943 
0.1396200000000000 0.682857 156.442318 
0.1425900000000000 0.682638 156.020088 
0.1455600000000000 0.682434 155.608000 
0.1485300000000000 0.682411 155.181552 
0.1515000000000000 0.682043 154.756988 
0.1544700000000000 0.681851 154.337539 
0.1574400000000000 0.681476 153.914590 
0.1604100000000000 0.681166 153.492349 
0.1633800000000000 0.681015 153.077848 
0.1663500000000000 0.680765 152.651544 
0.1693200000000000 0.680252 152.229007 
0.1722900000000000 0.679963 151.814366 
0.1752600000000000 0.679998 151.397955 
0.1782300000000000 0.712542 153.426171 
0.1812000000000000 0.712153 153.003419 
0.1841700000000000 0.711855 152.587981 
0.1871400000000000 0.711608 152.175543 
0.1901100000000000 0.711436 151.772822 
0.1930800000000000 0.710743 151.359502 
0.1960500000000000 0.710321 150.941809 
0.1990200000000000 0.710183 150.523550 
0.2019900000000000 0.710049 150.114920 
0.2049600000000000 0.709735 149.701716 
0.2079300000000000 0.709548 149.295310 
0.2109000000000000 0.709444 148.882384 
0.2138700000000000 0.709235 148.473899 
0.2168400000000000 0.709068 148.059702 
0.2198100000000000 0.708789 147.655197 
0.2227800000000000 0.708644 147.237937 
0.2257500000000000 0.708635 146.858104 
0.2287200000000000 0.708443 146.446160 
0.2316900000000000 0.707993 146.029776 
0.2346600000000000 0.707688 145.621906 
0.2376300000000000 0.707429 145.208238 
0.2406000000000000 0.707492 144.804496 
0.2435700000000000 0.707303 144.399386 
0.2465400000000000 0.707130 143.996080 
0.2495100000000000 0.706816 143.591231 
0.2524800000000000 0.706574 143.182069 
0.2554500000000000 0.706343 142.771158 
0.2584200000000000 0.706171 142.373893 
0.2613900000000000 0.706012 141.962539 
0.2643600000000000 0.705733 141.563068 
0.2673300000000000 0.705478 141.156328 
0.2703000000000000 0.705146 140.744964 
0.2732700000000000 0.704979 140.351625 
0.2762400000000000 0.704858 139.949230 
0.2792100000000000 0.704639 139.544043 
0.2821800000000000 0.704366 139.135643 
0.2851500000000000 0.704210 138.719475 
0.2881200000000000 0.704143 138.316969 
0.2910900000000000 0.704307 137.915356 
0.2940600000000000 0.704312 137.516394 
0.2970300000000000 0.704201 137.119666 
0.3000000000000000 0.703950 136.719744 
