!
! C:\data\NanoVNA\8753 load.S1P
!
! Touchstone 1.1 file saved by VNA.EXE V1.60 (www.ke5fx.com/gpib/readme.htm)
! 22/08/2019 8:33:01 a.m.
!
!    Source: HEWLETT PACKARD,8753C,0,4.12
!  Min freq: 3.000000E+006 Hz
!  Max freq: 3.000000E+008 Hz
!    Points: 101
!    Params: S11
!
!!!!!
# GHZ S MA R 50
0.0030000000000000 0.009242 -152.545185 
0.0059700000000000 0.010232 -173.220747 
0.0089400000000000 0.010151 176.245541 
0.0119100000000000 0.009924 169.258586 
0.0148800000000000 0.009714 164.055375 
0.0178500000000000 0.009540 158.359197 
0.0208200000000000 0.009349 154.152449 
0.0237900000000000 0.009165 150.158982 
0.0267600000000000 0.008990 146.531184 
0.0297300000000000 0.008817 143.206014 
0.0327000000000000 0.008261 137.449128 
0.0356700000000000 0.008098 134.396406 
0.0386400000000000 0.007975 131.543640 
0.0416100000000000 0.007831 128.750806 
0.0445800000000000 0.007702 126.130645 
0.0475500000000000 0.007594 123.933542 
0.0505200000000000 0.007496 121.558793 
0.0534900000000000 0.007382 119.317030 
0.0564600000000000 0.007301 117.123982 
0.0594300000000000 0.007210 115.046429 
0.0624000000000000 0.007140 113.212659 
0.0653700000000000 0.007069 111.223690 
0.0683400000000000 0.007011 109.408473 
0.0713100000000000 0.006959 107.630396 
0.0742800000000000 0.006893 105.882243 
0.0772500000000000 0.006851 104.112661 
0.0802200000000000 0.006817 102.551845 
0.0831900000000000 0.006789 101.144207 
0.0861600000000000 0.006752 99.405776 
0.0891300000000000 0.006707 98.059818 
0.0921000000000000 0.006712 96.604964 
0.0950700000000000 0.006673 95.173673 
0.0980400000000000 0.006666 93.937573 
0.1010100000000000 0.006671 92.490798 
0.1039800000000000 0.006664 91.193148 
0.1069500000000000 0.006657 89.950749 
0.1099200000000000 0.006651 88.631964 
0.1128900000000000 0.006661 87.759884 
0.1158600000000000 0.006670 86.631135 
0.1188300000000000 0.006690 85.343521 
0.1218000000000000 0.006708 84.387070 
0.1247700000000000 0.006714 83.073352 
0.1277400000000000 0.006743 82.171880 
0.1307100000000000 0.006749 80.911001 
0.1336800000000000 0.006783 80.045680 
0.1366500000000000 0.006812 79.215512 
0.1396200000000000 0.006828 78.156475 
0.1425900000000000 0.006862 77.128324 
0.1455600000000000 0.006891 76.110878 
0.1485300000000000 0.006929 75.179571 
0.1515000000000000 0.006946 74.232910 
0.1544700000000000 0.006996 73.378179 
0.1574400000000000 0.007024 72.510936 
0.1604100000000000 0.007059 71.623798 
0.1633800000000000 0.007096 70.868584 
0.1663500000000000 0.007132 69.908896 
0.1693200000000000 0.007161 69.147923 
0.1722900000000000 0.007213 68.222507 
0.1752600000000000 0.007261 67.378979 
0.1782300000000000 0.007649 68.945821 
0.1812000000000000 0.007698 68.142571 
0.1841700000000000 0.007748 67.363722 
0.1871400000000000 0.007808 66.519988 
0.1901100000000000 0.007858 65.908662 
0.1930800000000000 0.007882 65.129477 
0.1960500000000000 0.007940 64.298999 
0.1990200000000000 0.008014 63.508891 
0.2019900000000000 0.008050 62.843772 
0.2049600000000000 0.008098 62.113166 
0.2079300000000000 0.008159 61.248035 
0.2109000000000000 0.008196 60.559444 
0.2138700000000000 0.008259 59.897515 
0.2168400000000000 0.008301 59.142362 
0.2198100000000000 0.008377 58.430209 
0.2227800000000000 0.008444 57.695562 
0.2257500000000000 0.008480 57.124036 
0.2287200000000000 0.008544 56.298845 
0.2316900000000000 0.008611 55.566322 
0.2346600000000000 0.008661 54.974253 
0.2376300000000000 0.008714 54.134103 
0.2406000000000000 0.008787 53.489512 
0.2435700000000000 0.008846 52.884870 
0.2465400000000000 0.008895 52.082991 
0.2495100000000000 0.008956 51.311366 
0.2524800000000000 0.009016 50.674347 
0.2554500000000000 0.009067 50.055156 
0.2584200000000000 0.009124 49.404229 
0.2613900000000000 0.009172 48.642157 
0.2643600000000000 0.009236 47.954741 
0.2673300000000000 0.009286 47.404611 
0.2703000000000000 0.009347 46.704401 
0.2732700000000000 0.009400 46.049209 
0.2762400000000000 0.009453 45.458798 
0.2792100000000000 0.009502 44.778383 
0.2821800000000000 0.009575 44.142523 
0.2851500000000000 0.009623 43.514272 
0.2881200000000000 0.009665 42.936828 
0.2910900000000000 0.009737 42.311533 
0.2940600000000000 0.009795 41.660061 
0.2970300000000000 0.009857 41.026228 
0.3000000000000000 0.009904 40.565987 
