!
! C:\data\NanoVNA\8753 calibrated attenutator.S1P
!
! Touchstone 1.1 file saved by VNA.EXE V1.60 (www.ke5fx.com/gpib/readme.htm)
! 22/08/2019 5:14:27 p.m.
!
!    Source: HEWLETT PACKARD,8753C,0,4.12
!  Min freq: 3.000000E+006 Hz
!  Max freq: 3.000000E+008 Hz
!    Points: 201
!    Params: S11
!
!!!!!
# GHZ S MA R 50
0.0030000000000000 0.279471 -0.375397 
0.0044850000000000 0.279510 -0.594301 
0.0059700000000000 0.279629 -0.797286 
0.0074550000000000 0.279690 -0.994065 
0.0089400000000000 0.279666 -1.222400 
0.0104250000000000 0.279643 -1.425767 
0.0119100000000000 0.279594 -1.638720 
0.0133950000000000 0.279777 -1.837737 
0.0148800000000000 0.279563 -2.026880 
0.0163650000000000 0.279554 -2.227238 
0.0178500000000000 0.279752 -2.457110 
0.0193350000000000 0.279551 -2.652974 
0.0208200000000000 0.279619 -2.877707 
0.0223050000000000 0.279731 -3.076852 
0.0237900000000000 0.279724 -3.277263 
0.0252750000000000 0.279558 -3.495378 
0.0267600000000000 0.279721 -3.681223 
0.0282450000000000 0.279739 -3.878314 
0.0297300000000000 0.279684 -4.120360 
0.0312150000000000 0.279636 -4.284086 
0.0327000000000000 0.279661 -4.474951 
0.0341850000000000 0.279876 -4.709684 
0.0356700000000000 0.279697 -4.907189 
0.0371550000000000 0.279518 -5.098716 
0.0386400000000000 0.279792 -5.300798 
0.0401250000000000 0.279549 -5.506452 
0.0416100000000000 0.279645 -5.705615 
0.0430950000000000 0.279747 -5.910856 
0.0445800000000000 0.279629 -6.158583 
0.0460650000000000 0.279447 -6.335699 
0.0475500000000000 0.279670 -6.544559 
0.0490350000000000 0.279547 -6.761544 
0.0505200000000000 0.279638 -6.967189 
0.0520050000000000 0.279580 -7.176603 
0.0534900000000000 0.279792 -7.344383 
0.0549750000000000 0.279732 -7.563457 
0.0564600000000000 0.279748 -7.752217 
0.0579450000000000 0.279866 -7.972829 
0.0594300000000000 0.279669 -8.177404 
0.0609150000000000 0.279710 -8.365704 
0.0624000000000000 0.279803 -8.599827 
0.0638850000000000 0.279781 -8.777522 
0.0653700000000000 0.279738 -8.984485 
0.0668550000000000 0.279671 -9.195596 
0.0683400000000000 0.279721 -9.393469 
0.0698250000000000 0.279787 -9.606674 
0.0713100000000000 0.279719 -9.802479 
0.0727950000000000 0.279840 -10.017030 
0.0742800000000000 0.279798 -10.218489 
0.0757650000000000 0.279904 -10.424138 
0.0772500000000000 0.279826 -10.646332 
0.0787350000000000 0.279870 -10.844941 
0.0802200000000000 0.279879 -11.035481 
0.0817050000000000 0.279918 -11.237654 
0.0831900000000000 0.279901 -11.458174 
0.0846750000000000 0.279884 -11.643805 
0.0861600000000000 0.279814 -11.851003 
0.0876450000000000 0.279878 -12.049375 
0.0891300000000000 0.279809 -12.250570 
0.0906150000000000 0.279870 -12.497298 
0.0921000000000000 0.279992 -12.680537 
0.0935850000000000 0.279856 -12.882223 
0.0950700000000000 0.279950 -13.063668 
0.0965550000000000 0.279994 -13.279677 
0.0980400000000000 0.279894 -13.477143 
0.0995250000000000 0.279993 -13.668192 
0.1010100000000000 0.279873 -13.934719 
0.1024950000000000 0.280151 -14.071815 
0.1039800000000000 0.280035 -14.309593 
0.1054650000000000 0.280004 -14.485313 
0.1069500000000000 0.279999 -14.692070 
0.1084350000000000 0.280073 -14.920559 
0.1099200000000000 0.280144 -15.107318 
0.1114050000000000 0.280079 -15.308230 
0.1128900000000000 0.280112 -15.497379 
0.1143750000000000 0.280225 -15.730694 
0.1158600000000000 0.280150 -15.939392 
0.1173450000000000 0.280139 -16.134872 
0.1188300000000000 0.280056 -16.344617 
0.1203150000000000 0.280253 -16.547457 
0.1218000000000000 0.280173 -16.754241 
0.1232850000000000 0.280152 -16.944648 
0.1247700000000000 0.280303 -17.140793 
0.1262550000000000 0.280260 -17.375426 
0.1277400000000000 0.280216 -17.554852 
0.1292250000000000 0.280295 -17.739560 
0.1307100000000000 0.280414 -17.967617 
0.1321950000000000 0.280350 -18.168686 
0.1336800000000000 0.280410 -18.355087 
0.1351650000000000 0.280343 -18.560195 
0.1366500000000000 0.280372 -18.791911 
0.1381350000000000 0.280326 -18.976402 
0.1396200000000000 0.280473 -19.187070 
0.1411050000000000 0.280463 -19.389198 
0.1425900000000000 0.280360 -19.581874 
0.1440750000000000 0.280512 -19.789260 
0.1455600000000000 0.280593 -20.008663 
0.1470450000000000 0.280483 -20.182834 
0.1485300000000000 0.280499 -20.407572 
0.1500150000000000 0.280514 -20.602740 
0.1515000000000000 0.280508 -20.819783 
0.1529850000000000 0.280500 -21.007296 
0.1544700000000000 0.280582 -21.197911 
0.1559550000000000 0.280530 -21.419451 
0.1574400000000000 0.280511 -21.605205 
0.1589250000000000 0.280730 -21.818760 
0.1604100000000000 0.280764 -22.010727 
0.1618950000000000 0.280653 -22.228329 
0.1633800000000000 0.280740 -22.402828 
0.1648650000000000 0.280725 -22.623225 
0.1663500000000000 0.280795 -22.826558 
0.1678350000000000 0.280732 -23.028072 
0.1693200000000000 0.280593 -23.223140 
0.1708050000000000 0.280802 -23.432018 
0.1722900000000000 0.280689 -23.628849 
0.1737750000000000 0.280802 -23.867009 
0.1752600000000000 0.281069 -24.050597 
0.1767450000000000 0.280931 -24.254137 
0.1782300000000000 0.280884 -24.466880 
0.1797150000000000 0.280914 -24.652317 
0.1812000000000000 0.280925 -24.843166 
0.1826850000000000 0.280968 -25.075920 
0.1841700000000000 0.280992 -25.276476 
0.1856550000000000 0.280991 -25.486608 
0.1871400000000000 0.281070 -25.692832 
0.1886250000000000 0.281070 -25.900113 
0.1901100000000000 0.281129 -26.088011 
0.1915950000000000 0.281136 -26.295241 
0.1930800000000000 0.281222 -26.463549 
0.1945650000000000 0.281215 -26.676278 
0.1960500000000000 0.281096 -26.890524 
0.1975350000000000 0.281253 -27.069678 
0.1990200000000000 0.281203 -27.288078 
0.2005050000000000 0.281214 -27.491746 
0.2019900000000000 0.281290 -27.695859 
0.2034750000000000 0.281320 -27.887583 
0.2049600000000000 0.281345 -28.089033 
0.2064450000000000 0.281470 -28.304437 
0.2079300000000000 0.281388 -28.498876 
0.2094150000000000 0.281475 -28.683829 
0.2109000000000000 0.281534 -28.921747 
0.2123850000000000 0.281508 -29.104062 
0.2138700000000000 0.281521 -29.296508 
0.2153550000000000 0.281483 -29.520100 
0.2168400000000000 0.281444 -29.685355 
0.2183250000000000 0.281508 -29.905119 
0.2198100000000000 0.281670 -30.117353 
0.2212950000000000 0.281551 -30.303946 
0.2227800000000000 0.281641 -30.525346 
0.2242650000000000 0.281755 -30.722694 
0.2257500000000000 0.281791 -30.916933 
0.2272350000000000 0.281729 -31.154557 
0.2287200000000000 0.281743 -31.317917 
0.2302050000000000 0.281759 -31.528638 
0.2316900000000000 0.281768 -31.729768 
0.2331750000000000 0.281795 -31.932713 
0.2346600000000000 0.281883 -32.133767 
0.2361450000000000 0.281980 -32.359670 
0.2376300000000000 0.281946 -32.536703 
0.2391150000000000 0.281996 -32.710630 
0.2406000000000000 0.282024 -32.922700 
0.2420850000000000 0.281936 -33.128456 
0.2435700000000000 0.282156 -33.295622 
0.2450550000000000 0.282129 -33.529349 
0.2465400000000000 0.282111 -33.747647 
0.2480250000000000 0.282130 -33.920404 
0.2495100000000000 0.282085 -34.117286 
0.2509950000000000 0.282361 -34.315256 
0.2524800000000000 0.282374 -34.527332 
0.2539650000000000 0.282300 -34.718273 
0.2554500000000000 0.282351 -34.933676 
0.2569350000000000 0.282315 -35.101370 
0.2584200000000000 0.282424 -35.320690 
0.2599050000000000 0.282539 -35.550978 
0.2613900000000000 0.282502 -35.758206 
0.2628750000000000 0.282468 -35.938851 
0.2643600000000000 0.282593 -36.115624 
0.2658450000000000 0.282556 -36.335833 
0.2673300000000000 0.282609 -36.558692 
0.2688150000000000 0.282608 -36.770904 
0.2703000000000000 0.282544 -36.954674 
0.2717850000000000 0.282779 -37.151244 
0.2732700000000000 0.282761 -37.340494 
0.2747550000000000 0.282831 -37.532027 
0.2762400000000000 0.282875 -37.735924 
0.2777250000000000 0.282733 -37.930579 
0.2792100000000000 0.282881 -38.134653 
0.2806950000000000 0.282905 -38.335483 
0.2821800000000000 0.283001 -38.529059 
0.2836650000000000 0.282953 -38.734596 
0.2851500000000000 0.282959 -38.947876 
0.2866350000000000 0.283071 -39.152292 
0.2881200000000000 0.283165 -39.331983 
0.2896050000000000 0.283122 -39.535139 
0.2910900000000000 0.283131 -39.750214 
0.2925750000000000 0.283124 -39.960557 
0.2940600000000000 0.283325 -40.148109 
0.2955450000000000 0.283308 -40.373357 
0.2970300000000000 0.283184 -40.524611 
0.2985150000000000 0.283381 -40.718077 
0.3000000000000000 0.283348 -40.960389 
