! File created by NanoVNA (https://gen111.taobao.com/)
! Start 3000000Hz  Stop 300000000Hz   Points 101
# HZ S MA R 50
!S - Parameter data, F S11
3000000	0.278472289	-0.926823259
5970000	0.279801104	-1.013277582
8940000	0.279574204	-1.180956737
11910000	0.279649109	-1.576103459
14880000	0.279665675	-1.997967598
17850000	0.279804551	-2.417036725
20820000	0.279834411	-2.818640717
23790000	0.279834504	-3.186868483
26760000	0.279856380	-3.594947577
29730000	0.279771640	-3.984554569
32700000	0.279745947	-4.420036602
35670000	0.279788993	-4.826849773
38640000	0.279717684	-5.223584530
41610000	0.279754451	-5.612389990
44580000	0.279712115	-5.967790943
47550000	0.279874361	-6.393351872
50520000	0.279827602	-6.831633510
53490000	0.279699998	-7.236085033
56460000	0.279772403	-7.606783827
59430000	0.279773021	-8.009165779
62400000	0.279762074	-8.427536440
65370000	0.280028742	-8.831188090
68340000	0.280032046	-9.221430125
71310000	0.279887918	-9.647849522
74280000	0.279939289	-10.063310764
77250000	0.279821696	-10.470158898
80220000	0.279892956	-10.841894527
83190000	0.279821533	-11.239884467
86160000	0.279872510	-11.675131519
89130000	0.279996926	-12.060698455
92100000	0.279844028	-12.496215039
95070000	0.280096489	-12.865526834
98040000	0.280016210	-13.283830101
101010000	0.280068999	-13.697823675
103980000	0.280058465	-14.108481154
106950000	0.280189774	-14.508329146
109920000	0.280208911	-14.929224639
112890000	0.280446641	-15.271245856
115860000	0.280315557	-15.682099177
118830000	0.280280532	-16.105899390
121800000	0.280173893	-16.524039262
124770000	0.280394185	-16.871856267
127740000	0.280145956	-17.262958899
130710000	0.280368965	-17.724773359
133680000	0.280311897	-18.153511012
136650000	0.280533781	-18.554524726
139620000	0.280514457	-18.926545714
142590000	0.280399379	-19.307298812
145560000	0.280607861	-19.678313341
148530000	0.280681628	-20.111758527
151500000	0.280579431	-20.494632480
154470000	0.280524165	-20.899693369
157440000	0.280597458	-21.326128082
160410000	0.280493567	-21.778040988
163380000	0.280607759	-22.164695538
166350000	0.280704685	-22.573773408
169320000	0.280464286	-22.968540467
172290000	0.280540734	-23.358779674
175260000	0.280430529	-23.763053683
178230000	0.280572733	-24.128536417
181200000	0.280520343	-24.583243946
184170000	0.280844521	-24.996366834
187140000	0.281009909	-25.371567890
190110000	0.281057384	-25.788650031
193080000	0.280990075	-26.214734403
196050000	0.281089373	-26.605274866
199020000	0.280945023	-26.977842687
201990000	0.281096105	-27.369401595
204960000	0.280976352	-27.785788914
207930000	0.280623506	-28.205767035
210900000	0.281070522	-28.609560697
213870000	0.281189746	-28.974560678
216840000	0.281132887	-29.307994879
219810000	0.281064270	-29.831772046
222780000	0.281208704	-30.207565042
225750000	0.280876942	-30.663891344
228720000	0.281172544	-31.029392484
231690000	0.281417706	-31.432548299
234660000	0.281582942	-31.809406126
237630000	0.281293956	-32.204968448
240600000	0.281191333	-32.635215594
243570000	0.281077076	-33.071036975
246540000	0.280985500	-33.413642556
249510000	0.281604064	-33.871506177
252480000	0.281448081	-34.219146427
255450000	0.281413729	-34.602516864
258420000	0.281441069	-34.948986344
261390000	0.281382907	-35.371004917
264360000	0.281464022	-35.783818737
267330000	0.281744883	-36.260090077
270300000	0.281664099	-36.660692598
273270000	0.281702678	-37.134198471
276240000	0.281613819	-37.539992269
279210000	0.281840913	-37.917670219
282180000	0.281668095	-38.241040011
285150000	0.281019734	-38.763255254
288120000	0.280671824	-39.016078996
291090000	0.280884021	-39.413268835
294060000	0.281116416	-39.813280903
297030000	0.280846021	-40.181191676
300000000	0.276598295	-41.590732304
