! File created by NanoVNA (https://gen111.taobao.com/)
! Start 3000000Hz  Stop 300000000Hz   Points 101
# HZ S MA R 50
!S - Parameter data, F S11
3000000	0.279081383	-0.654670303
5970000	0.279391278	-0.721693027
8940000	0.279649453	-1.222714395
11910000	0.279434645	-1.617446253
14880000	0.279300114	-2.032269217
17850000	0.279514952	-2.479292768
20820000	0.279500283	-2.855435980
23790000	0.279506995	-3.249507707
26760000	0.279400863	-3.659616519
29730000	0.279404146	-4.102488396
32700000	0.279359382	-4.518679296
35670000	0.279488036	-4.921998809
38640000	0.279379601	-5.300154301
41610000	0.279672605	-5.726963748
44580000	0.279348358	-6.163573454
47550000	0.279711389	-6.547662039
50520000	0.279445686	-6.969964709
53490000	0.279425458	-7.330722037
56460000	0.279732498	-7.749907698
59430000	0.279475451	-8.202022079
62400000	0.279651171	-8.581822700
65370000	0.279483822	-8.960826984
68340000	0.279590503	-9.400308070
71310000	0.279645081	-9.748902606
74280000	0.279629062	-10.234048533
77250000	0.279432263	-10.654059693
80220000	0.279696895	-11.052390202
83190000	0.279739420	-11.489482540
86160000	0.279631057	-11.812533782
89130000	0.279702885	-12.249689564
92100000	0.279649350	-12.688221938
95070000	0.279750868	-13.129912383
98040000	0.280094905	-13.491123366
101010000	0.279831663	-13.886917683
103980000	0.279906979	-14.276288936
106950000	0.280073651	-14.756165135
109920000	0.279678660	-15.113959792
112890000	0.279480113	-15.516686233
115860000	0.280307879	-15.923526903
118830000	0.280069027	-16.297351441
121800000	0.279596442	-16.779283415
124770000	0.279791536	-17.176980211
127740000	0.280027248	-17.520663141
130710000	0.279842288	-17.899879940
133680000	0.280251434	-18.369036084
136650000	0.280129887	-18.721092100
139620000	0.280279404	-19.150371583
142590000	0.280382792	-19.570748397
145560000	0.280120932	-20.001848547
148530000	0.280354643	-20.350890299
151500000	0.280286749	-20.781843599
154470000	0.280566946	-21.174098980
157440000	0.280427322	-21.620183584
160410000	0.280303030	-22.048756112
163380000	0.280713641	-22.450384921
166350000	0.280598859	-22.866549562
169320000	0.280627884	-23.202480287
172290000	0.280653213	-23.605344387
175260000	0.280788284	-24.040058968
178230000	0.280782724	-24.370813692
181200000	0.280765140	-24.856563701
184170000	0.280987821	-25.233453705
187140000	0.280588222	-25.598124022
190110000	0.280588125	-26.065304474
193080000	0.280941129	-26.429067718
196050000	0.280823942	-26.848482581
199020000	0.281228921	-27.253428193
201990000	0.281176126	-27.689590749
204960000	0.281270767	-28.041411938
207930000	0.281288049	-28.391716046
210900000	0.281392972	-28.864342141
213870000	0.281159134	-29.240945813
216840000	0.281130834	-29.678713691
219810000	0.281724835	-30.000434349
222780000	0.281666281	-30.500385076
225750000	0.281829131	-30.952769750
228720000	0.281432966	-31.333671213
231690000	0.282008348	-31.727554163
234660000	0.282032378	-32.056380433
237630000	0.281762726	-32.561629240
240600000	0.281461640	-32.867570043
243570000	0.281617915	-33.309386700
246540000	0.281935849	-33.660805104
249510000	0.282000052	-34.103990600
252480000	0.281895952	-34.446358372
255450000	0.281898364	-34.882681059
258420000	0.282381402	-35.317833852
261390000	0.282368137	-35.610472827
264360000	0.282302360	-36.004668662
267330000	0.282470488	-36.441852233
270300000	0.282524867	-36.942289591
273270000	0.282494393	-37.386046854
276240000	0.282198305	-37.744055840
279210000	0.282535676	-38.038688703
282180000	0.282846179	-38.243915616
285150000	0.283104399	-38.853178111
288120000	0.283353517	-39.285677667
291090000	0.283394176	-39.775745115
294060000	0.283923745	-40.067269641
297030000	0.284084685	-40.537408580
300000000	0.283707176	-40.881462200
