! File created by NanoVNA (https://gen111.taobao.com/)
! Start 3000000Hz  Stop 300000000Hz   Points 101
# HZ S MA R 50
!S - Parameter data, F S11
3000000	0.001549785	-115.557494221
5970000	0.000330217	-9.554628490
8940000	0.000450475	-23.530287165
11910000	0.000261470	-17.702897328
14880000	0.000395715	-14.574628185
17850000	0.000497501	-18.997377146
20820000	0.000406669	1.093376154
23790000	0.000272253	-3.041170071
26760000	0.000269383	3.983541181
29730000	0.000217846	-21.924730323
32700000	0.000245751	-0.973195007
35670000	0.000326755	-17.532687935
38640000	0.000289556	-16.502000398
41610000	0.000259957	21.719880533
44580000	0.000373830	-10.956416839
47550000	0.000427615	-1.417884371
50520000	0.000157321	43.292095407
53490000	0.000265231	-2.622131303
56460000	0.000290439	6.338274654
59430000	0.000265968	-4.596245346
62400000	0.000324529	-20.934255537
65370000	0.000425963	-1.195870835
68340000	0.000343000	8.562392194
71310000	0.000496066	-41.831753845
74280000	0.000254855	-34.161960131
77250000	0.000429948	12.421282073
80220000	0.000262692	-23.624631932
83190000	0.000195651	9.518168799
86160000	0.000199888	29.013176937
89130000	0.000221148	-20.406308325
92100000	0.000308306	-55.490424172
95070000	0.000216951	42.157346227
98040000	0.000445380	-8.150205721
101010000	0.000425436	-5.384297672
103980000	0.000355089	17.914432448
106950000	0.000497540	-17.085567178
109920000	0.000306038	-38.637440774
112890000	0.000364409	-22.709086543
115860000	0.000139873	-30.800424266
118830000	0.000397485	-18.298427997
121800000	0.000541961	-19.335393077
124770000	0.000255612	-18.587276374
127740000	0.000400812	-12.734156876
130710000	0.000321033	-42.983166515
133680000	0.000242090	-12.852773188
136650000	0.000290571	-36.623378437
139620000	0.000486487	-20.562827173
142590000	0.000330522	26.107188997
145560000	0.000567412	3.826655617
148530000	0.000560203	0.416168191
151500000	0.000283801	-9.279079414
154470000	0.000497125	-20.705765240
157440000	0.000420201	-11.765952906
160410000	0.000274008	-48.625373626
163380000	0.000374319	1.564538150
166350000	0.000301242	-40.175778604
169320000	0.000427269	-83.311581545
172290000	0.000190794	-60.272215449
175260000	0.000543625	-2.050701251
178230000	0.000365883	-15.195209347
181200000	0.000341781	2.784910283
184170000	0.000452827	30.512466264
187140000	0.000629373	-11.479578385
190110000	0.000478453	-27.844689421
193080000	0.000609986	-10.158663187
196050000	0.000275508	-19.942827470
199020000	0.000471941	-29.108787628
201990000	0.000052554	21.265916445
204960000	0.000305600	-76.397200199
207930000	0.000372245	15.140898185
210900000	0.000503474	23.992242407
213870000	0.000326763	0.596354678
216840000	0.000358533	3.778633962
219810000	0.000371963	-11.641115469
222780000	0.000306162	17.355922512
225750000	0.000342789	-6.386484823
228720000	0.000160852	-75.836069559
231690000	0.000241210	15.244889609
234660000	0.000320441	-24.170741612
237630000	0.000217519	-7.068494738
240600000	0.000330304	53.836637983
243570000	0.000545225	18.120280425
246540000	0.000258896	20.066489094
249510000	0.000506338	6.932155443
252480000	0.000617722	19.079427441
255450000	0.000531277	-17.561416086
258420000	0.000178226	36.241843457
261390000	0.000201692	14.899851467
264360000	0.000269599	-18.896654689
267330000	0.000400883	-18.473004267
270300000	0.000660323	-55.237873699
273270000	0.000685657	-85.702070016
276240000	0.000643143	-85.759409800
279210000	0.000705011	-52.882929139
282180000	0.000204113	-165.966003209
285150000	0.000422607	125.432712816
288120000	0.000619835	132.621215175
291090000	0.000308531	130.637490850
294060000	0.000456025	100.086519196
297030000	0.000295434	129.573969762
300000000	0.002430197	37.831882325
