! File created by NanoVNA (https://gen111.taobao.com/)
! Start 3000000Hz  Stop 300000000Hz   Points 101
# HZ S MA R 50
!S - Parameter data, F S11
3000000	0.278377686	-0.886934247
5970000	0.278997714	-0.934384490
8940000	0.279522289	-1.154394945
11910000	0.279513963	-1.587389061
14880000	0.279550680	-2.012586517
17850000	0.279536964	-2.364211373
20820000	0.279700956	-2.766694379
23790000	0.279638842	-3.147725810
26760000	0.279620194	-3.549520326
29730000	0.279700143	-3.993923247
32700000	0.279637314	-4.393709923
35670000	0.279636580	-4.789988913
38640000	0.279535607	-5.204418388
41610000	0.279577696	-5.584501605
44580000	0.279581752	-5.979965521
47550000	0.279566566	-6.380193078
50520000	0.279626903	-6.777592109
53490000	0.279557889	-7.192094822
56460000	0.279659869	-7.639931975
59430000	0.279617440	-8.029452994
62400000	0.279708532	-8.411185359
65370000	0.279596328	-8.798413245
68340000	0.279620394	-9.251970887
71310000	0.279630889	-9.665160128
74280000	0.279645939	-10.014629260
77250000	0.279597306	-10.462968570
80220000	0.279621132	-10.857302380
83190000	0.279461905	-11.249358869
86160000	0.279725215	-11.700800140
89130000	0.279750745	-12.076167831
92100000	0.279686228	-12.456722937
95070000	0.279804996	-12.859240289
98040000	0.279806515	-13.264643478
101010000	0.279784842	-13.691261507
103980000	0.279853229	-14.087216939
106950000	0.279932353	-14.500214871
109920000	0.280045816	-14.912273144
112890000	0.280008028	-15.291729123
115860000	0.279899020	-15.688386068
118830000	0.279935049	-16.098916745
121800000	0.279964999	-16.483830271
124770000	0.279916697	-16.881265860
127740000	0.279929568	-17.278600983
130710000	0.280085979	-17.717608828
133680000	0.280035331	-18.151610407
136650000	0.280143372	-18.487402966
139620000	0.280134866	-18.905762832
142590000	0.280228135	-19.294562558
145560000	0.280302891	-19.719510125
148530000	0.280100279	-20.074594043
151500000	0.280283475	-20.491516561
154470000	0.280415986	-20.883520387
157440000	0.280479671	-21.316673841
160410000	0.280363999	-21.756061797
163380000	0.280294002	-22.139266089
166350000	0.280484380	-22.548705328
169320000	0.280083732	-22.984175766
172290000	0.280316833	-23.312859608
175260000	0.280315750	-23.745196844
178230000	0.280216965	-24.121042714
181200000	0.280405019	-24.532461276
184170000	0.280660600	-24.940525995
187140000	0.280493631	-25.420573584
190110000	0.280951159	-25.816403720
193080000	0.280485312	-26.199763939
196050000	0.280537345	-26.562462503
199020000	0.280574446	-26.986730112
201990000	0.280945318	-27.395603478
204960000	0.280657811	-27.799221417
207930000	0.280516410	-28.227102187
210900000	0.280671253	-28.560187104
213870000	0.280721668	-29.003606383
216840000	0.280496757	-29.403657025
219810000	0.280809960	-29.836429395
222780000	0.280436137	-30.217512333
225750000	0.280704639	-30.639316356
228720000	0.280715538	-31.022284607
231690000	0.280809570	-31.471702497
234660000	0.280900661	-31.815908967
237630000	0.280665556	-32.197319031
240600000	0.280968291	-32.578989901
243570000	0.280779691	-32.992735490
246540000	0.280677756	-33.412267993
249510000	0.281129186	-33.809188487
252480000	0.280739491	-34.233361324
255450000	0.280873816	-34.670931054
258420000	0.280690081	-34.945235958
261390000	0.281148745	-35.440670762
264360000	0.281096769	-35.831986490
267330000	0.281230257	-36.310686423
270300000	0.281190132	-36.657359523
273270000	0.281256288	-37.078053896
276240000	0.281204512	-37.537544455
279210000	0.281555530	-37.913339306
282180000	0.281281453	-38.303489615
285150000	0.280531792	-38.756616189
288120000	0.279986211	-39.039527037
291090000	0.280141566	-39.513669896
294060000	0.280533592	-39.988215880
297030000	0.281003931	-40.271921767
300000000	0.276327438	-41.587555197
