! File created by NanoVNA (https://gen111.taobao.com/)
! Start 3000000Hz  Stop 300000000Hz   Points 101
# HZ S MA R 50
!S - Parameter data, F S11
3000000	0.268937308	-0.774589586
5970000	0.269107755	-0.905194824
8940000	0.269216982	-1.174205738
11910000	0.269436576	-1.608244341
14880000	0.269289010	-1.955428381
17850000	0.269356310	-2.367699638
20820000	0.269554744	-2.765838087
23790000	0.269501993	-3.178836643
26760000	0.269484756	-3.565608680
29730000	0.269482208	-4.000981782
32700000	0.269415749	-4.353411669
35670000	0.269197697	-4.711991588
38640000	0.269364681	-5.153879880
41610000	0.269553271	-5.479531103
44580000	0.269348167	-5.863670066
47550000	0.269381378	-6.305518966
50520000	0.269543587	-6.720586465
53490000	0.269619879	-7.125696493
56460000	0.269228388	-7.534672840
59430000	0.269511130	-7.943680717
62400000	0.269664148	-8.299394507
65370000	0.269694535	-8.718272369
68340000	0.269512258	-9.039618307
71310000	0.269675532	-9.442795626
74280000	0.269838238	-9.891297249
77250000	0.269584952	-10.315670814
80220000	0.269592923	-10.663611663
83190000	0.269589006	-11.106320899
86160000	0.269798269	-11.517874083
89130000	0.269829645	-11.821835834
92100000	0.269696082	-12.205512445
95070000	0.269928627	-12.642633779
98040000	0.269957490	-12.990896708
101010000	0.269932997	-13.403666387
103980000	0.269961413	-13.812844633
106950000	0.269888921	-14.178125387
109920000	0.269921179	-14.623927208
112890000	0.270565314	-15.022597754
115860000	0.269920028	-15.371812592
118830000	0.270113118	-15.809431706
121800000	0.270006460	-16.253470536
124770000	0.270198113	-16.622268506
127740000	0.270218236	-16.946333908
130710000	0.270132874	-17.307332436
133680000	0.270192039	-17.765624065
136650000	0.270200014	-18.162312954
139620000	0.270330208	-18.633192163
142590000	0.270329710	-18.967941260
145560000	0.270624195	-19.391079470
148530000	0.270654753	-19.775240066
151500000	0.270861115	-20.114055173
154470000	0.270263932	-20.498884413
157440000	0.270706760	-20.894000412
160410000	0.270970415	-21.290809860
163380000	0.270888992	-21.682944546
166350000	0.270970808	-22.045230167
169320000	0.270784125	-22.445367268
172290000	0.270897070	-22.858619850
175260000	0.270931996	-23.279816583
178230000	0.271502803	-23.634765809
181200000	0.270946842	-24.009074050
184170000	0.271079646	-24.413162897
187140000	0.271423584	-24.817196167
190110000	0.271758687	-25.221869618
193080000	0.271560432	-25.664436215
196050000	0.271912478	-26.007189163
199020000	0.271824086	-26.392283935
201990000	0.271727403	-26.757792414
204960000	0.272179477	-27.201647852
207930000	0.271877167	-27.607850460
210900000	0.271979397	-27.936801613
213870000	0.271944620	-28.332093189
216840000	0.272703053	-28.747266520
219810000	0.272496065	-29.116394854
222780000	0.272391203	-29.500209602
225750000	0.272500330	-29.966371453
228720000	0.272160708	-30.363188675
231690000	0.272867273	-30.783190306
234660000	0.272222734	-31.167806213
237630000	0.272741169	-31.466328227
240600000	0.272665434	-31.919051646
243570000	0.272946048	-32.217964750
246540000	0.273142575	-32.720875124
249510000	0.273054804	-33.135515671
252480000	0.272480644	-33.410947393
255450000	0.272729922	-33.827887150
258420000	0.272896650	-34.215170935
261390000	0.273754036	-34.624815088
264360000	0.273253523	-35.064574966
267330000	0.273448812	-35.309241877
270300000	0.273737588	-35.838689866
273270000	0.273965271	-36.074496080
276240000	0.273206565	-36.475903708
279210000	0.273693650	-36.858005764
282180000	0.273738944	-37.476003265
285150000	0.273951450	-37.666948289
288120000	0.274105918	-38.048147870
291090000	0.274128177	-38.653769513
294060000	0.274461043	-38.760822996
297030000	0.275452077	-39.222993432
300000000	0.275857732	-39.605009131
