! File created by NanoVNA (https://gen111.taobao.com/)
! Start 3000000Hz  Stop 300000000Hz   Points 101
# HZ S MA R 50
!S - Parameter data, F S11
3000000	0.999573833	179.900822407
5970000	0.998251154	179.959227030
8940000	0.999678473	-179.926856047
11910000	0.999620408	-179.896227747
14880000	0.999684240	-179.890859067
17850000	0.999504988	-179.862792324
20820000	0.999726084	-179.865138976
23790000	0.999662941	-179.835538284
26760000	0.999725849	-179.839865409
29730000	0.999841487	-179.808594009
32700000	0.999869277	-179.806308675
35670000	0.999503886	-179.802540261
38640000	0.999744744	-179.793893389
41610000	1.000004790	-179.792171673
44580000	0.999632179	-179.771816556
47550000	0.999837780	-179.760616748
50520000	0.999957494	-179.751436870
53490000	0.999867075	-179.763506950
56460000	1.000002798	-179.740600245
59430000	1.000012023	-179.723239744
62400000	0.999957331	-179.722224798
65370000	1.000004718	-179.711166042
68340000	0.999821759	-179.704144802
71310000	0.999596492	-179.689491408
74280000	0.999693374	-179.662096106
77250000	1.000208965	-179.665567031
80220000	1.000014182	-179.664901715
83190000	1.000115691	-179.655685600
86160000	1.000254012	-179.644174105
89130000	0.999959004	-179.637259054
92100000	1.000149105	-179.620754171
95070000	1.000187128	-179.627047567
98040000	0.999644849	-179.617064782
101010000	0.999902618	-179.598826981
103980000	0.999718392	-179.596263762
106950000	0.999768793	-179.596472782
109920000	0.999613941	-179.582140209
112890000	1.000067227	-179.566649752
115860000	0.999808058	-179.578093364
118830000	0.999902622	-179.550052667
121800000	0.999948465	-179.560569135
124770000	0.999677351	-179.551056612
127740000	0.999660220	-179.533692675
130710000	1.000140927	-179.535932483
133680000	1.000004566	-179.518016799
136650000	1.000135347	-179.502417051
139620000	0.999834901	-179.496339588
142590000	0.999650540	-179.512509120
145560000	0.999639871	-179.504541914
148530000	0.999661255	-179.487168428
151500000	0.999572327	-179.505394982
154470000	0.999865393	-179.490332402
157440000	0.999766696	-179.479989119
160410000	0.999622115	-179.469028980
163380000	0.999916545	-179.471424046
166350000	0.999647914	-179.454190660
169320000	0.999395974	-179.440601977
172290000	0.999469567	-179.434812642
175260000	0.999168946	-179.430786913
178230000	0.999316140	-179.427568271
181200000	0.999284782	-179.430338103
184170000	0.999470780	-179.415284891
187140000	0.999447426	-179.429448455
190110000	0.999077951	-179.418387394
193080000	0.999340279	-179.402144948
196050000	0.999236600	-179.393806811
199020000	0.999451896	-179.399690616
201990000	0.999484510	-179.382604680
204960000	0.999210010	-179.371003099
207930000	0.999270889	-179.385707347
210900000	0.998991090	-179.364383669
213870000	0.998984089	-179.388394891
216840000	0.998845037	-179.371583029
219810000	0.998855444	-179.374837633
222780000	0.998689786	-179.362150397
225750000	0.998501619	-179.367619230
228720000	0.998503249	-179.350391601
231690000	0.998503864	-179.353924697
234660000	0.998301908	-179.367736767
237630000	0.998313239	-179.357257439
240600000	0.998598907	-179.337909489
243570000	0.998064333	-179.334979691
246540000	0.997775567	-179.328622443
249510000	0.997282796	-179.335309204
252480000	0.997969704	-179.338079114
255450000	0.997621254	-179.307842495
258420000	0.997457399	-179.285482360
261390000	0.997430810	-179.258812898
264360000	0.997269401	-179.266203533
267330000	0.997563131	-179.272223159
270300000	0.997597349	-179.236953576
273270000	0.997277909	-179.230256520
276240000	0.998090778	-179.280968306
279210000	0.997970380	-179.243439197
282180000	0.997605194	-179.301191629
285150000	0.997437855	-179.317466578
288120000	0.997328257	-179.299760485
291090000	0.997186662	-179.318907469
294060000	0.996380782	-179.315307266
297030000	0.996619855	-179.262911401
300000000	0.976497024	179.259153701
