! File created by NanoVNA (https://gen111.taobao.com/)
! Start 3000000Hz  Stop 300000000Hz   Points 101
# HZ S MA R 50
!S - Parameter data, F S11
3000000	0.997378343	-0.345315983
5970000	0.998111824	-0.109642488
8940000	0.999346437	0.059500401
11910000	0.999057873	0.058504788
14880000	0.999125200	0.063505774
17850000	0.999236320	0.054474433
20820000	0.999360619	0.052269130
23790000	0.999430080	0.041261756
26760000	0.999303490	0.042028745
29730000	0.999416285	0.039063404
32700000	0.999362408	0.027923886
35670000	0.999458919	0.029175902
38640000	0.999315552	0.038954908
41610000	0.999241038	0.026188980
44580000	0.999139190	0.019873074
47550000	0.999032108	0.013568168
50520000	0.999176802	0.003496603
53490000	0.999218884	-0.004700436
56460000	0.999379036	-0.019352265
59430000	0.999136408	-0.022875214
62400000	0.998951379	-0.005209524
65370000	0.999041454	-0.022393290
68340000	0.999158170	-0.023710448
71310000	0.999118896	-0.024641250
74280000	0.998930391	-0.034008822
77250000	0.998939451	-0.034032890
80220000	0.998876273	-0.019676340
83190000	0.998911248	-0.033017692
86160000	0.998802074	-0.049065467
89130000	0.998965883	-0.075133413
92100000	0.998922301	-0.071973073
95070000	0.999149626	-0.048874875
98040000	0.999299038	-0.081149747
101010000	0.998809261	-0.070595646
103980000	0.999182044	-0.086255184
106950000	0.999092969	-0.096041947
109920000	0.999090015	-0.096935255
112890000	0.999123929	-0.088454205
115860000	0.999027112	-0.104082271
118830000	0.999055857	-0.106442384
121800000	0.998992537	-0.105816119
124770000	0.998911413	-0.116345032
127740000	0.998761629	-0.098177224
130710000	0.998624395	-0.120714976
133680000	0.999028684	-0.131317067
136650000	0.998664554	-0.137082180
139620000	0.998614240	-0.147892542
142590000	0.998673598	-0.139530093
145560000	0.998579506	-0.160917213
148530000	0.998381378	-0.157189199
151500000	0.998171944	-0.172988384
154470000	0.998420765	-0.176898813
157440000	0.998413176	-0.179847905
160410000	0.998299213	-0.192505322
163380000	0.998348698	-0.198747197
166350000	0.998121055	-0.200517516
169320000	0.998018110	-0.219080348
172290000	0.997903878	-0.231716518
175260000	0.998045972	-0.227372098
178230000	0.997899691	-0.239013680
181200000	0.997797401	-0.252465697
184170000	0.997818293	-0.260506675
187140000	0.997997866	-0.251862688
190110000	0.998138753	-0.274700372
193080000	0.997860722	-0.279983118
196050000	0.997684165	-0.282700207
199020000	0.998418694	-0.288331377
201990000	0.997544497	-0.296111595
204960000	0.997337386	-0.321700119
207930000	0.997652665	-0.323173110
210900000	0.997578185	-0.338854937
213870000	0.997204303	-0.310075029
216840000	0.996904767	-0.330122276
219810000	0.996781305	-0.337576819
222780000	0.996626859	-0.358932336
225750000	0.996669027	-0.376778754
228720000	0.996365217	-0.366761544
231690000	0.996727644	-0.381137194
234660000	0.996492044	-0.399442126
237630000	0.996335620	-0.388830804
240600000	0.996066795	-0.408997097
243570000	0.995601605	-0.429899629
246540000	0.995469371	-0.430608179
249510000	0.995836290	-0.443951383
252480000	0.995433322	-0.430703264
255450000	0.995170117	-0.455670254
258420000	0.995524971	-0.473558296
261390000	0.994605170	-0.472650168
264360000	0.994396357	-0.510988817
267330000	0.994583284	-0.510213957
270300000	0.994359121	-0.500609238
273270000	0.994075457	-0.513446504
276240000	0.994227002	-0.532787365
279210000	0.993735536	-0.547345822
282180000	0.993521959	-0.531622914
285150000	0.992639255	-0.556028310
288120000	0.993084544	-0.589518953
291090000	0.993140750	-0.532976589
294060000	0.992751393	-0.574260441
297030000	0.992543842	-0.499756209
300000000	0.973059171	-2.008832461
