! File created by NanoVNA (https://gen111.taobao.com/)
! Start 1000000Hz  Stop 899999800Hz   Points 101
# HZ S MA R 50
!S - Parameter data, F S11
1000000	0.075343985	-154.535090961
9989900	0.002771664	125.450335824
18979900	0.001908439	-47.952136400
27969900	0.000321746	-175.075783832
36959900	0.000419392	67.172005157
45949900	0.000929239	62.045684076
54939900	0.000810650	158.377887708
63929900	0.000848084	155.388347276
72919900	0.000661604	12.060540737
81909900	0.000743778	3.201866219
90899900	0.000885781	-170.737660616
99889900	0.000408031	-80.579230658
108879900	0.000516618	102.844256114
117869900	0.000897680	-112.494322984
126859900	0.000797221	-130.512490264
135849900	0.000326640	-4.549463123
144839900	0.000719123	-28.519142076
153829900	0.000284669	-143.304121961
162819900	0.000410670	-171.921256978
171809900	0.000560905	-42.904787047
180799900	0.000226079	-19.037792011
189789900	0.000864337	39.178696029
198779900	0.000541063	-35.665086558
207769900	0.000316228	141.563308991
216759900	0.000531205	-142.554142220
225749900	0.000889365	95.111547529
234739900	0.000493550	157.730815584
243729900	0.000463432	162.327335883
252719900	0.000761040	-174.667845116
261709900	0.002578973	-27.021017145
270699900	0.001428598	-73.503456145
279689900	0.000940921	78.618689205
288679900	0.001310929	53.271771887
297669900	0.000318747	65.815283947
306659900	0.001868880	-119.252475987
315649900	0.002549878	123.840004810
324639900	0.002152199	36.309613284
333629900	0.003897385	-114.021788243
342619900	0.004363415	16.353248024
351609900	0.002482789	-116.976127708
360599900	0.000640918	63.324885781
369589900	0.003445000	-44.546788556
378579900	0.002140392	-95.741075351
387569900	0.001276016	-116.839557153
396559900	0.002445455	19.910640355
405549900	0.002340519	-111.353101461
414539900	0.002338648	101.294177687
423529900	0.003981554	136.978934457
432519900	0.002346607	-54.064838980
441509900	0.003100264	19.061866975
450499900	0.001229701	-113.318387089
459489800	0.002337856	-138.222380056
468479800	0.004238260	3.108907686
477469800	0.006833458	-162.769536175
486459800	0.005721262	100.402705620
495449800	0.004437779	-122.323090577
504439800	0.001118445	45.288849134
513429800	0.002596685	30.786179260
522419800	0.003451752	-14.980921846
531409800	0.007172394	15.571362962
540399800	0.004536709	-137.239158282
549389800	0.006329138	131.735831117
558379800	0.001959799	71.426004893
567369800	0.009820958	143.758083072
576359800	0.007500051	-34.868222133
585349800	0.004798765	96.713459051
594339800	0.007514419	25.052224700
603329800	0.003299886	97.480060547
612319800	0.010418476	-74.304566501
621309800	0.004542254	-29.030371353
630299800	0.005612723	-56.197523517
639289800	0.003811298	126.970270960
648279800	0.006514585	132.496209274
657269800	0.006236429	14.159821826
666259800	0.010489832	-115.042497097
675249800	0.010083991	-6.038193279
684239800	0.010752426	-64.589413923
693229800	0.004848881	-164.277369190
702219800	0.001975568	-86.940324389
711209800	0.004545811	54.547268374
720199800	0.003068969	106.773976857
729189800	0.017002221	-58.339108402
738179800	0.006991903	-169.277431173
747169800	0.006355154	100.281787131
756159800	0.005078914	-44.416587773
765149800	0.005746264	-43.909787522
774139800	0.012400457	92.561894392
783129800	0.009796205	-137.190324187
792119800	0.002900300	-70.207069365
801109800	0.011175089	-147.373764217
810099800	0.003300497	79.644577339
819089800	0.006258272	-116.006714476
828079800	0.006170666	-55.656420968
837069800	0.011287125	-150.738967459
846059800	0.019157313	-172.564140925
855049800	0.009062740	-82.080673852
864039800	0.014820235	55.381274367
873029800	0.011260770	68.291338298
882019800	0.004368839	48.653601916
891009800	0.030040708	-67.034232877
899999800	0.009446597	-177.461283145
