! File created by NanoVNA (https://gen111.taobao.com/)
! Start 50000Hz  Stop 899999800Hz   Points 101
# HZ S MA R 50
!S - Parameter data, F S11
50000	0.238942264	-79.323896997
9049400	0.995633033	-0.192685270
18048900	0.996191468	-0.370514073
27048400	1.000657379	-1.000402570
36047900	0.999978978	-1.249981406
45047400	1.000247004	-1.370144855
54046900	0.998633425	-1.702010937
63046400	0.999520989	-1.951058054
72045900	0.999790924	-2.207698165
81045400	0.999804720	-2.531877624
90044900	0.999212488	-2.678555311
99044400	1.000210286	0.002499175
108043900	0.999319491	0.039348473
117043400	0.999987289	-0.032835828
126042900	0.999812523	-0.037963110
135042400	1.000522608	0.027310945
144041900	0.999811684	-0.024967729
153041400	1.000364543	0.001831479
162040900	1.000320192	-0.027566716
171040400	1.000472382	-0.035781560
180039900	1.000756512	0.029169275
189039400	0.999702396	-0.003998602
198038900	1.000389111	-0.056632498
207038400	1.000289440	0.000307417
216037900	0.999788802	-0.032493056
225037400	0.999568209	-0.109723713
234036900	1.000241396	-0.062449369
243036400	1.001540439	-0.056908525
252035900	1.000312041	0.077065671
261035400	1.000050215	0.080277180
270034900	0.999656098	-0.153631147
279034400	1.000506382	-0.047189780
288033900	1.000167098	-0.136248154
297033400	0.999704354	-0.033592250
306032900	1.009280119	-0.293770818
315032400	0.997819238	-0.108291651
324031900	0.996217419	0.043595107
333031400	1.002350602	-0.188044647
342030900	0.994979057	0.102193921
351030400	0.997526407	-0.044250762
360029900	1.002578986	0.049232719
369029400	1.000573238	0.045751273
378028900	0.999441241	-0.015117917
387028400	0.999570016	-0.241577767
396027900	0.993727249	0.171518948
405027400	1.002291242	0.016091091
414026900	1.001585697	-0.201173367
423026400	1.004697724	0.336514548
432025900	1.008153004	-0.521540971
441025400	1.000801119	-0.779163134
450024900	1.001782196	-0.366746793
459024300	0.998240785	-0.074815598
468023800	0.997620140	-0.267629233
477023300	0.997764411	-0.191038750
486022800	1.001276037	-0.093501976
495022300	1.005239342	0.077887145
504021800	0.994080495	-0.431608096
513021300	1.008017842	-0.370232142
522020800	1.011247544	0.063701120
531020300	0.995163916	0.334185255
540019800	0.992198476	-0.718038052
549019300	0.992852864	0.218358595
558018800	0.995186174	-0.914006368
567018300	0.999798559	-0.245040272
576017800	1.007030614	-0.428342637
585017300	1.000297039	-0.476150340
594016800	0.994397239	-0.284917041
603016300	0.999421179	-0.076622876
612015800	1.001910859	0.151689495
621015300	1.012173445	-0.214078022
630014800	0.992093432	-0.288365895
639014300	1.002250216	-0.041296060
648013800	1.001037857	-0.205830694
657013300	1.000843039	-0.384381723
666012800	1.001233250	-0.274300805
675012300	1.005394776	-0.077243273
684011800	1.000685563	-0.362411094
693011300	0.997939366	-0.170706692
702010800	0.985545181	-0.700113414
711010300	1.010378327	-0.549448286
720009800	0.986953421	-0.622963652
729009300	0.996781628	-0.575536906
738008800	0.987352794	0.267182267
747008300	1.024048920	-0.465869856
756007800	1.007917304	-0.746784369
765007300	0.991191397	-0.797080853
774006800	0.999399377	-0.311137986
783006300	1.009741515	-1.523380787
792005800	1.015192575	-1.482243760
801005300	1.020450837	-0.495466565
810004800	0.995342032	1.214960570
819004300	0.995749822	0.326263180
828003800	1.020426797	0.302613832
837003300	0.993096412	1.046489154
846002800	1.008700430	0.711549831
855002300	1.023034711	1.136817887
864001800	0.997708808	0.498358071
873001300	0.998737744	0.051852019
882000800	1.007200000	0.114873052
891000300	1.010084614	-0.380534648
899999800	0.999386326	0.270067498
