! File created by NanoVNA (https://gen111.taobao.com/)
! Start 1000000Hz  Stop 899999800Hz   Points 101
# HZ S MA R 50
!S - Parameter data, F S11
1000000	0.070472012	-172.102098636
9989900	0.002170229	-149.981566026
18979900	0.001310528	-74.947065317
27969900	0.001004969	127.353312348
36959900	0.000528593	18.180613365
45949900	0.000801960	61.539939643
54939900	0.000132258	153.722070474
63929900	0.000324429	140.163473143
72919900	0.000127042	5.126117843
81909900	0.000073275	162.915494769
90899900	0.000690211	-151.833689954
99889900	0.000231683	177.319247119
108879900	0.000732363	76.635034721
117869900	0.000352187	-134.292280166
126859900	0.000639459	177.369840844
135849900	0.000391369	-36.243944618
144839900	0.000225327	-97.738562752
153829900	0.000504164	-153.217219840
162819900	0.000314746	137.164173859
171809900	0.001164979	-57.528196633
180799900	0.000191113	-55.112903020
189789900	0.000154633	-175.353317384
198779900	0.000490817	-103.187119352
207769900	0.000134947	-174.955832301
216759900	0.000723286	-139.869510238
225749900	0.000512390	-174.244533400
234739900	0.000453160	41.484944081
243729900	0.000492450	162.131519118
252719900	0.001661241	-163.822322367
261709900	0.001844802	-13.256784918
270699900	0.001243546	-24.436153070
279689900	0.002047539	152.049434036
288679900	0.001253327	-136.081379100
297669900	0.000157858	-18.931825080
306659900	0.004728528	178.934874769
315649900	0.002769588	118.974696438
324639900	0.002854247	82.376129441
333629900	0.001785357	-57.084293474
342619900	0.001329693	23.237935725
351609900	0.003671437	127.299994917
360599900	0.003567347	68.687935767
369589900	0.001043993	-115.806088508
378579900	0.002352959	-3.698588194
387569900	0.001531776	91.689371094
396559900	0.005500026	-7.116793328
405549900	0.001925681	-130.140858813
414539900	0.001367374	13.071815002
423529900	0.003418736	89.446396601
432519900	0.002422219	-80.241852587
441509900	0.002773688	-59.774767252
450499900	0.000624890	70.673281669
459489800	0.004353578	88.414153738
468479800	0.000283809	-125.340825532
477469800	0.003547626	-150.478301724
486459800	0.002664764	106.104562076
495449800	0.002899798	-174.300878753
504439800	0.003394571	-143.528094009
513429800	0.003805280	-11.218540062
522419800	0.003120686	55.087184725
531409800	0.007793060	15.134109162
540399800	0.002612466	-102.285688644
549389800	0.008370075	110.684371654
558379800	0.003089706	15.209196611
567369800	0.006735160	105.218239214
576359800	0.007697389	-53.796368810
585349800	0.001307069	-158.013038635
594339800	0.005775560	30.094538180
603329800	0.001928011	-139.850029935
612319800	0.007335730	-20.175423817
621309800	0.002267732	-68.832965982
630299800	0.005752816	130.713660173
639289800	0.002092565	157.262200228
648279800	0.001498098	162.254155454
657269800	0.005273946	87.476536419
666259800	0.009571696	-158.504949206
675249800	0.004554649	-52.151916055
684239800	0.004881395	-150.246647008
693229800	0.000256515	37.791216176
702219800	0.009869748	7.884269567
711209800	0.003591573	67.837777710
720199800	0.003047161	6.603406909
729189800	0.019091715	-47.344798201
738179800	0.008784212	27.148499932
747169800	0.003745290	-140.804426783
756159800	0.003201621	-162.657478514
765149800	0.003464862	-127.388917702
774139800	0.005047281	6.771087448
783129800	0.002249674	-55.350490810
792119800	0.005161106	-159.203891749
801109800	0.006757529	1.319189874
810099800	0.011994947	34.741314493
819089800	0.005570169	-70.675442746
828079800	0.017145456	80.761229257
837069800	0.012589039	156.812275186
846059800	0.013166157	179.026154043
855049800	0.016658520	-114.735590975
864039800	0.010835777	84.922374360
873029800	0.010830923	86.512582023
882019800	0.005521851	90.017224476
891009800	0.016795432	-102.220037167
899999800	0.008495720	-105.281447903
