! File created by NanoVNA (https://gen111.taobao.com/)
! Start 50000Hz  Stop 899999800Hz   Points 101
# HZ S MA R 50
!S - Parameter data, F S11
50000	0.641966704	-17.300700454
9049400	0.931581706	-0.038381856
18048900	0.931553354	0.286106823
27048400	0.929859535	0.302403252
36047900	0.930576671	0.375804642
45047400	0.930953825	0.469067818
54046900	0.931490464	0.559357416
63046400	0.932061317	0.672786992
72045900	0.931532276	0.763677296
81045400	0.931883831	0.847255563
90044900	0.932599925	0.898862671
99044400	0.932654943	1.026563039
108043900	0.932267993	1.127528087
117043400	0.934063816	1.193433887
126042900	0.934286874	1.344539766
135042400	0.935069597	1.442936018
144041900	0.935592631	1.496904544
153041400	0.936466439	1.577259371
162040900	0.937329011	1.635623956
171040400	0.937545896	1.756866350
180039900	0.938110105	1.882669788
189039400	0.939279462	2.010781625
198038900	0.939892134	2.071341689
207038400	0.939991021	2.175279169
216037900	0.940543628	2.289789934
225037400	0.940634295	2.340918602
234036900	0.942397861	2.480657779
243036400	0.942188197	2.684708887
252035900	0.942501992	2.668789519
261035400	0.944287644	2.794070149
270034900	0.944923085	3.100152551
279034400	0.945924344	3.138353045
288033900	0.945748369	3.208414290
297033400	0.947855566	3.203678416
306032900	0.970066092	3.016973545
315032400	0.955148455	3.331157344
324031900	0.952947205	3.650095461
333031400	0.954706682	3.430084427
342030900	0.959678106	3.204080500
351030400	0.953330584	3.742941818
360029900	0.961842116	3.960610653
369029400	0.964045837	3.782491000
378028900	0.956183304	3.860724084
387028400	0.965373500	4.047811637
396027900	0.961426229	4.521226309
405027400	0.966461222	4.608131418
414026900	0.963674843	4.346721345
423026400	0.967584489	4.751597778
432025900	0.969098049	4.805157075
441025400	0.971278575	4.821104747
450024900	0.961676563	5.376099400
459024300	0.962214411	5.356589314
468023800	0.962002993	5.503735300
477023300	0.963992115	6.091123284
486022800	0.969333254	6.175491362
495022300	0.963079503	6.532815561
504021800	0.974890085	6.523142377
513021300	0.972007084	6.684222340
522020800	0.979028776	7.170277268
531020300	0.977192084	7.531126168
540019800	0.984168677	8.079286849
549019300	0.985307212	7.703744879
558018800	0.979500166	7.786616773
567018300	0.991465576	7.223016312
576017800	0.985832753	8.041770694
585017300	0.988050313	8.284094034
594016800	0.996616349	8.171041104
603016300	0.998028267	7.994393349
612015800	0.982929715	8.640371537
621015300	0.979681931	8.897874843
630014800	0.975841545	9.137681754
639014300	0.979983245	8.794891574
648013800	0.980060653	9.258831387
657013300	0.981155066	9.029691964
666012800	0.982793343	9.926155217
675012300	0.978312262	9.904043900
684011800	0.977440275	9.673082451
693011300	0.981263235	10.607134420
702010800	0.974901026	10.789004838
711010300	0.969380770	10.897538892
720009800	0.977012667	11.077432594
729009300	0.977389112	11.879079012
738008800	0.960375264	11.152090632
747008300	0.964852847	11.536265660
756007800	0.963634983	12.466309150
765007300	0.961895886	12.329996675
774006800	0.957577440	12.512013759
783006300	0.950068735	12.492082157
792005800	0.963478284	12.641143923
801005300	0.943157821	13.155871176
810004800	0.937687779	13.853033809
819004300	0.951567601	13.447282356
828003800	0.927941791	12.857748065
837003300	0.918106369	13.831362550
846002800	0.937295511	15.088836577
855002300	0.927521380	15.277525910
864001800	0.907941435	14.240161272
873001300	0.906421497	15.175912332
882000800	0.921751416	15.871345446
891000300	0.904002569	16.197897520
899999800	0.938098346	16.007141754
