! File created by NanoVNA (https://gen111.taobao.com/)
! Start 1000000Hz  Stop 899999800Hz   Points 101
# HZ S MA R 50
!S - Parameter data, F S11
1000000	0.058285686	-158.853199642
9989900	0.002538351	149.950320352
18979900	0.000341158	154.818032206
27969900	0.001251189	123.203281484
36959900	0.000419820	-2.565125477
45949900	0.000840253	47.129498198
54939900	0.000396116	-151.101762328
63929900	0.000553017	90.468613926
72919900	0.000630368	-14.005447040
81909900	0.000466874	-18.326402246
90899900	0.001187881	-150.243464520
99889900	0.000050954	115.084417408
108879900	0.000043123	-174.353394480
117869900	0.000472554	-140.703128596
126859900	0.000497554	-163.136708752
135849900	0.000314772	-27.480633001
144839900	0.000468158	-82.450969979
153829900	0.001130751	-157.602341571
162819900	0.000413229	-174.207303466
171809900	0.000221215	-148.977343826
180799900	0.000550793	30.363018962
189789900	0.000100686	-166.933641748
198779900	0.000203713	-90.106877671
207769900	0.000629570	-79.545808981
216759900	0.000618485	-72.075522911
225749900	0.000152350	-92.743054490
234739900	0.000422832	-69.475975385
243729900	0.000668435	-114.359104260
252719900	0.001972642	-127.432663362
261709900	0.002663595	-19.177145948
270699900	0.001210863	-55.093432369
279689900	0.001196150	-151.778078506
288679900	0.000850400	-50.236595218
297669900	0.001837437	-53.577100934
306659900	0.001084693	-9.994314277
315649900	0.003799944	97.997503581
324639900	0.001990732	-172.634494723
333629900	0.001102909	-108.933148722
342619900	0.001978087	39.929861870
351609900	0.002698362	-99.041886232
360599900	0.002814803	36.899929656
369589900	0.001128010	-71.538612523
378579900	0.003048577	-73.453219079
387569900	0.001791371	43.127712828
396559900	0.002014624	3.773692546
405549900	0.002703252	-71.133788853
414539900	0.004925665	146.455958382
423529900	0.003025023	61.120297724
432519900	0.003554375	-136.522824888
441509900	0.003374077	-19.466173831
450499900	0.002549349	-122.818636098
459489800	0.003337752	31.728229442
468479800	0.001353991	-156.662544035
477469800	0.001753365	-126.430183303
486459800	0.000131331	115.666743951
495449800	0.006258537	-84.872648999
504439800	0.002179103	-84.479469461
513429800	0.001502139	43.137862519
522419800	0.007136913	-11.584014848
531409800	0.011175956	9.200773503
540399800	0.003062274	-93.214040956
549389800	0.006375437	92.352754413
558379800	0.002463731	147.935168464
567369800	0.001553170	44.409662779
576359800	0.006474083	-16.206039381
585349800	0.005325335	132.510589838
594339800	0.003343164	-12.010898816
603329800	0.012470116	67.409950423
612319800	0.005906040	-40.612990346
621309800	0.004623177	119.143814994
630299800	0.003371697	-134.667455943
639289800	0.002968580	-71.653801169
648279800	0.004453529	89.325716560
657269800	0.008933665	54.015256484
666259800	0.006617948	-115.765495975
675249800	0.005987475	0.855764029
684239800	0.005567663	-100.160957878
693229800	0.015339238	-63.448486161
702219800	0.010406911	-34.214268218
711209800	0.011729392	66.716892006
720199800	0.007763708	108.702294321
729189800	0.019984770	-57.559981932
738179800	0.005125247	165.607227102
747169800	0.001234801	165.475389807
756159800	0.010196171	-107.636093870
765149800	0.008127897	-20.845448589
774139800	0.004019800	-76.238595851
783129800	0.009656377	-8.694492672
792119800	0.001455673	69.037163596
801109800	0.012379365	-13.477880223
810099800	0.006359792	-22.402766042
819089800	0.010639099	-3.356899103
828079800	0.015564263	64.701051860
837069800	0.003691773	152.486196485
846059800	0.009963509	-127.419332037
855049800	0.016874814	-88.738983284
864039800	0.017493066	110.339585459
873029800	0.011207133	176.952393317
882019800	0.000366150	-26.970382963
891009800	0.036350320	-42.665177155
899999800	0.006747755	-136.279707338
