! File created by NanoVNA (https://gen111.taobao.com/)
! Start 50000Hz  Stop 6000000Hz   Points 101
# HZ S MA R 50
!S - Parameter data, F S11
50000	0.489838294	16.066961062
109500	1.505836082	16.855200527
169000	3.259360730	-8.206701711
228500	1.126890764	0.950914999
288000	0.815072176	-9.411308509
347500	0.924455606	-6.807293391
407000	0.916230780	2.921720962
466500	0.883757000	7.284782303
526000	0.984305731	-8.689969445
585500	1.061078305	4.183549658
645000	0.885209376	-2.432463076
704500	0.954156862	0.372759871
764000	0.970340964	-3.496607407
823500	0.952151504	-6.568501533
883000	0.989224045	1.637735735
942500	0.950162631	-1.285761983
1002000	0.986484862	0.543505205
1061500	1.021119616	-0.927451081
1121000	1.053378444	-0.803481520
1180500	1.011049820	1.555313096
1240000	1.036674061	2.784744030
1299500	1.010365244	-0.335119860
1359000	0.999048134	-0.122575669
1418500	0.964165431	-1.993465892
1478000	1.038487139	-0.782071430
1537500	1.032265492	1.277272907
1597000	0.993136894	0.263490513
1656500	0.974733762	3.332167743
1716000	1.022986396	0.486907669
1775500	1.044521792	0.531411952
1835000	1.038345426	2.150005991
1894500	1.006370576	-0.795793349
1954000	1.032644727	-0.588423443
2013500	0.999874821	1.699823057
2073000	1.024421787	-1.525014505
2132500	0.956364379	-0.468661061
2192000	0.998180003	0.024521329
2251500	0.991487625	-0.860058058
2311000	0.995161060	-0.814036288
2370500	1.012168415	-0.196774623
2430000	1.011914379	1.316610467
2489500	0.996695900	0.610551731
2549000	1.010211616	1.521370123
2608500	0.989688904	0.451933412
2668000	1.010771571	0.102200789
2727500	0.983826173	-0.029659359
2787000	0.999921603	-0.525546266
2846500	0.986769034	0.022127096
2906000	1.009500932	0.044903679
2965500	0.987219336	-0.214484722
3025000	0.994693937	0.136040791
3084500	1.005393793	1.267746138
3144000	1.007631247	-0.287679878
3203500	0.977485844	0.671167373
3263000	1.001222575	-0.133245971
3322500	1.000358508	-0.365124489
3382000	1.004651785	0.001956659
3441500	1.016061380	-0.486792915
3501000	0.994098456	-0.215095801
3560500	0.996205955	0.203571427
3620000	1.003368530	-1.186704692
3679500	0.999646793	0.896326200
3739000	1.009496410	-0.536085330
3798500	0.993179091	-0.585881350
3858000	1.002701597	0.724065405
3917500	1.002643865	0.320207232
3977000	0.997422841	0.225363090
4036500	0.998795731	0.221951058
4096000	1.007343094	0.516493752
4155500	1.012168748	-0.349383166
4215000	1.005701117	-0.562415450
4274500	0.983979670	0.208659115
4334000	0.991910875	-0.003099160
4393500	1.003527156	-0.412283695
4453000	1.003554882	-0.307855793
4512500	0.996252958	0.586969034
4572000	0.998974373	-0.273423454
4631500	0.992045235	-0.045278818
4691000	0.997103883	-0.318359217
4750500	1.003495803	-0.416050577
4810000	0.991849349	-0.588167302
4869500	0.998060039	-0.490210720
4929000	1.005854695	0.087084256
4988500	0.992887428	1.048824384
5048000	1.011973816	-0.228746395
5107500	0.999656050	0.785844638
5167000	1.000416803	0.126341646
5226500	1.003454792	0.180774088
5286000	1.008146095	-0.201696720
5345500	1.000740547	-0.370125814
5405000	1.002547171	0.211369438
5464500	0.998789967	0.001986671
5524000	1.006623153	-0.387423252
5583500	1.000824720	-0.075323276
5643000	0.996484035	0.148166205
5702500	0.993413777	-0.461445612
5762000	0.991185233	-0.078846886
5821500	1.004762926	0.119453592
5881000	1.001295960	-0.204111791
5940500	0.996759940	0.154525091
6000000	1.001402525	-0.089454234
