! File created by NanoVNA (https://gen111.taobao.com/)
! Start 1000000Hz  Stop 899999800Hz   Points 101
# HZ S MA R 50
!S - Parameter data, F S11
1000000	0.079800641	-132.169899141
9989900	0.002459023	59.454272050
18979900	0.002471686	-168.109215670
27969900	0.002108562	-75.802825325
36959900	0.001182412	135.237416304
45949900	0.000319649	-80.350645260
54939900	0.000995125	112.226322232
63929900	0.000858429	-122.362047835
72919900	0.000218962	-151.029318256
81909900	0.000719847	101.591767563
90899900	0.000567186	-49.275713961
99889900	0.000233428	-122.682414115
108879900	0.000704511	-90.099300332
117869900	0.000336622	129.090308673
126859900	0.000286406	44.983732395
135849900	0.000447693	100.602650286
144839900	0.000543667	74.159237389
153829900	0.000863473	0.916069876
162819900	0.000491067	108.392038493
171809900	0.000481483	158.037808997
180799900	0.001116926	30.391180009
189789900	0.001813304	165.379672360
198779900	0.000788341	-151.553987913
207769900	0.001046099	94.142808362
216759900	0.000693741	-75.378062794
225749900	0.000514462	-168.853726062
234739900	0.000821638	10.202581892
243729900	0.001342094	-166.056654209
252719900	0.000733247	168.273115277
261709900	0.000353532	170.905229394
270699900	0.000387824	114.103987637
279689900	0.001900941	-127.520945628
288679900	0.003026866	152.422407634
297669900	0.002973485	-21.670377728
306659900	0.004689561	-90.738899790
315649900	0.002486685	-17.742829137
324639900	0.002354501	140.717784273
333629900	0.005451987	152.006308876
342619900	0.003350176	-31.956053949
351609900	0.003805857	16.573890606
360599900	0.004428047	97.847595177
369589900	0.006351483	-48.000542567
378579900	0.003560263	-4.220038324
387569900	0.003180298	163.092571304
396559900	0.005316760	160.265445726
405549900	0.002226207	-125.625701337
414539900	0.002193719	39.870269020
423529900	0.009766008	15.133270896
432519900	0.001809472	44.301120776
441509900	0.006642684	78.033317732
450499900	0.001450757	-49.326512210
459489800	0.009755655	-22.360175268
468479800	0.002306717	-165.046595628
477469800	0.005378797	46.966127078
486459800	0.000378094	132.891483588
495449800	0.008002465	93.160455439
504439800	0.015750516	155.652875431
513429800	0.014044980	35.182193562
522419800	0.005700322	165.446118413
531409800	0.011779377	-1.096142548
540399800	0.009234017	50.743001656
549389800	0.008968257	54.743807508
558379800	0.002398919	56.425273636
567369800	0.008688483	168.829670594
576359800	0.002724798	162.677281360
585349800	0.005656083	115.298639825
594339800	0.010898309	72.668992599
603329800	0.014534750	148.203343606
612319800	0.007854595	94.704026885
621309800	0.009365633	161.749408727
630299800	0.017096621	30.712563612
639289800	0.012397335	-174.469355057
648279800	0.011524833	-13.364299751
657269800	0.009248432	169.157370862
666259800	0.014330548	-128.026046370
675249800	0.035277949	111.040297427
684239800	0.009258150	-3.111950692
693229800	0.005985181	-108.897275378
702219800	0.015910765	8.623092296
711209800	0.012752295	-24.809025668
720199800	0.014352315	-126.387345271
729189800	0.021950968	-95.389915133
738179800	0.017491577	-133.067973992
747169800	0.011770313	112.201934058
756159800	0.034100750	36.134705797
765149800	0.015867409	60.015290415
774139800	0.035708106	111.445671318
783129800	0.021040977	-152.731682877
792119800	0.003920775	93.944138570
801109800	0.001669550	60.058044623
810099800	0.024153183	55.611155728
819089800	0.034355919	-2.323930102
828079800	0.020838909	-141.254884488
837069800	0.019689600	152.128546615
846059800	0.034180928	-128.381653237
855049800	0.023320311	-165.192728322
864039800	0.011539817	168.824890806
873029800	0.030103878	73.269638775
882019800	0.046365413	85.423628082
891009800	0.046036282	-153.465976076
899999800	0.047352703	147.979284759
