! File created by NanoVNA (https://gen111.taobao.com/)
! Start 50000Hz  Stop 6000000Hz   Points 101
# HZ S MA R 50
!S - Parameter data, F S11
50000	0.862891708	35.375365156
109500	1.015117482	4.628973001
169000	1.522614374	8.596480498
228500	0.874387027	17.463177528
288000	0.972665534	4.264688603
347500	0.860654021	-0.226092478
407000	0.929338759	7.541715132
466500	1.161087353	-3.889933183
526000	0.929679779	2.301564373
585500	1.016982753	-3.969886588
645000	1.158297491	0.311505013
704500	1.054778462	0.434182002
764000	1.008301551	0.504945856
823500	0.954659343	-1.884657663
883000	1.018896166	-2.418539373
942500	1.036792546	-1.540210299
1002000	1.065977872	-1.120040243
1061500	0.976015654	1.250432439
1121000	1.016654928	0.208864419
1180500	0.978693820	-2.026830378
1240000	0.983018839	-2.581147164
1299500	1.001477187	1.737728833
1359000	0.971572877	2.300038120
1418500	0.987131882	-2.911102562
1478000	0.966325315	-1.823228413
1537500	0.970800678	-0.784495137
1597000	1.043019683	-1.201048116
1656500	1.009932952	-0.555130509
1716000	0.982502398	0.220398995
1775500	1.024128358	0.164354277
1835000	0.985007589	-0.534136924
1894500	1.002670455	-1.151778961
1954000	1.001339350	1.203922828
2013500	0.971623911	1.566114700
2073000	1.052724768	-0.470242617
2132500	0.971185103	-1.726080141
2192000	1.012252746	-0.924967583
2251500	1.011539793	0.481633683
2311000	1.016437879	1.306583470
2370500	0.981406224	-0.996699245
2430000	0.980058318	0.281955892
2489500	1.009763350	0.339758322
2549000	1.002285488	0.074274559
2608500	1.015689993	-1.251118302
2668000	0.976665339	-0.809248604
2727500	1.005359151	-0.957582752
2787000	1.001408319	1.534320509
2846500	1.015924555	-0.933814320
2906000	1.002573470	0.338570353
2965500	0.989577779	0.924912145
3025000	1.002768585	0.044857869
3084500	0.988810573	0.750611508
3144000	1.018964264	0.999204711
3203500	0.993990055	-0.200276466
3263000	1.000883103	0.532062639
3322500	1.004262294	-0.023754765
3382000	1.001996371	0.167172373
3441500	0.997878763	-0.560674982
3501000	1.000761700	-0.099306287
3560500	0.993318461	0.368350621
3620000	0.994175483	-0.062224521
3679500	1.006157276	-0.039284072
3739000	1.001646884	-0.145439623
3798500	0.993906448	-0.245588389
3858000	1.002623262	0.065628161
3917500	0.992345666	-0.420134041
3977000	1.005013861	0.588241399
4036500	1.000781782	-0.028837226
4096000	1.010687208	-0.733531682
4155500	1.018424153	0.261541500
4215000	1.001102871	0.650699016
4274500	1.004537533	-0.458312817
4334000	0.989158329	-0.292300482
4393500	1.004097768	0.312872642
4453000	1.012643717	-0.322056161
4512500	1.006385112	0.298018500
4572000	0.995769207	-0.847850346
4631500	1.008442073	-0.031041837
4691000	0.992814538	0.231499198
4750500	0.996707753	0.268254376
4810000	0.994334562	-0.285246625
4869500	0.990114600	-0.121765687
4929000	0.996531617	-0.464409873
4988500	0.997182171	0.047247403
5048000	0.991587150	0.280112117
5107500	0.987497587	-0.304084362
5167000	1.007490122	-0.282463064
5226500	1.003164234	-0.289644238
5286000	1.006856180	0.133144827
5345500	0.990605270	-0.600440207
5405000	1.001133416	-0.615004156
5464500	0.993298699	-0.068243745
5524000	1.017180017	-0.145282170
5583500	0.996414629	-0.287507081
5643000	1.003292150	-0.180050537
5702500	0.995173050	-0.437266075
5762000	1.009322842	-0.259248911
5821500	1.001125662	-0.255870512
5881000	0.985509101	-0.239182406
5940500	0.995069148	0.276959418
6000000	0.998530852	-0.197757336
