! File created by NanoVNA (https://gen111.taobao.com/)
! Start 1000000Hz  Stop 899999800Hz   Points 101
# HZ S MA R 50
!S - Parameter data, F S11
1000000	0.976110780	-6.672688458
9989900	0.999878646	-0.337499122
18979900	0.999716181	-0.053497135
27969900	1.000848191	0.074779321
36959900	1.000258208	-0.003109384
45949900	1.000100098	-0.023187001
54939900	1.000535139	0.049064888
63929900	1.000231411	0.030882671
72919900	0.999497675	-0.041505805
81909900	1.000169690	-0.019191288
90899900	0.999884613	0.028921149
99889900	1.000774152	-0.006960346
108879900	0.999801219	-0.001963057
117869900	1.000174179	-0.029603642
126859900	1.000092157	0.007651375
135849900	0.999909311	0.014110595
144839900	1.000667483	0.014313703
153829900	0.999715619	0.039010157
162819900	1.000285519	-0.009101472
171809900	1.000393874	-0.028812555
180799900	1.000453391	-0.016045341
189789900	0.999498726	-0.003362369
198779900	1.000129348	-0.006336495
207769900	1.001049399	-0.001697440
216759900	0.999654375	-0.030548924
225749900	1.000178885	-0.066212122
234739900	1.000499660	0.018900971
243729900	1.000943826	-0.033017675
252719900	0.998832474	0.007939980
261709900	0.999310295	-0.098319120
270699900	0.999797499	-0.015453223
279689900	0.999277111	0.048253067
288679900	1.001910243	0.050642576
297669900	0.999567530	-0.114286973
306659900	1.004367602	0.284819614
315649900	1.000615667	-0.236654762
324639900	0.997848264	0.232529980
333629900	1.001632470	-0.069357925
342619900	1.000879270	-0.067678043
351609900	0.995583120	-0.103149285
360599900	0.999619023	-0.103330879
369589900	0.999841689	0.294099417
378579900	1.000315645	0.150184764
387569900	1.000828674	0.249217463
396559900	0.999133198	-0.823767050
405549900	1.008384899	0.045217075
414539900	1.010672439	0.562046334
423529900	1.000802640	-0.388546114
432519900	0.999061799	-0.315810107
441509900	1.015064874	-0.162695439
450499900	1.002603207	0.101861806
459489800	1.002491723	0.294502892
468479800	0.996622843	-0.559679655
477469800	1.004313891	-0.365639316
486459800	0.997866536	-0.036612596
495449800	0.996128009	0.033050414
504439800	0.998477551	-0.183114338
513429800	0.993869236	-0.356552251
522419800	0.998716496	0.366809684
531409800	1.006637222	-0.749282309
540399800	1.006850019	0.101019592
549389800	0.996825908	-0.208352227
558379800	0.997082103	-0.472495659
567369800	0.995904395	-0.091162175
576359800	1.009885453	0.049792395
585349800	1.002731783	0.376773236
594339800	1.005264184	-0.118971518
603329800	1.011606007	0.195202360
612319800	1.002489350	0.057187749
621309800	1.002070078	-0.007762463
630299800	1.000550611	-0.210912838
639289800	1.011463253	-0.173136669
648279800	1.001575488	-0.156038850
657269800	1.011295431	-0.740735581
666259800	1.008026008	-1.190095144
675249800	1.015065766	-0.533992489
684239800	1.005867481	0.000440655
693229800	0.988517845	0.555837822
702219800	1.006246094	-0.905039047
711209800	1.006290298	0.127340420
720199800	1.008814626	-1.565940152
729189800	1.010481431	-0.616457031
738179800	0.983056115	0.440663237
747169800	1.010641361	-1.470286516
756159800	1.007251438	1.276371058
765149800	1.000987771	-0.641332544
774139800	0.984215244	-0.489146966
783129800	1.006198797	-0.093666112
792119800	0.991846167	-0.113058309
801109800	0.988365083	-0.808405963
810099800	1.026539289	0.474824429
819089800	0.997092895	-0.185721169
828079800	1.008769366	-0.232670144
837069800	1.005431029	-0.945669195
846059800	0.996466663	-0.970144597
855049800	1.021561717	-0.402830626
864039800	1.002281121	1.921458988
873029800	1.006784292	0.563722200
882019800	1.000173633	0.099051436
891009800	1.060732187	-1.312775406
899999800	1.003472177	-2.261235290
