! File created by NanoVNA (https://gen111.taobao.com/)
! Start 50000Hz  Stop 899999800Hz   Points 101
# HZ S MA R 50
!S - Parameter data, F S11
50000	0.213023036	-116.755230591
9049400	1.000306498	-0.227409007
18048900	0.998074938	-0.528678791
27048400	1.000772647	-1.020831352
36047900	0.998743172	-1.230798975
45047400	0.999780556	-1.434837713
54046900	0.999629455	-1.726704566
63046400	1.000291923	-1.914885445
72045900	0.999580636	-2.204198417
81045400	0.999361767	-2.439912651
90044900	0.998959547	-2.681405300
99044400	0.998551380	-2.939860593
108043900	0.999313346	-3.180546138
117043400	0.999543596	-3.438184025
126042900	0.998053725	-3.590961831
135042400	0.997189164	-3.810653524
144041900	0.998788875	-4.101107060
153041400	0.996775111	-4.279113616
162040900	0.996928637	-4.501064198
171040400	0.996701780	-4.727137998
180039900	0.996727021	-4.894600348
189039400	0.996568662	-5.054374183
198038900	0.995489021	-5.290455566
207038400	0.995637736	-5.497756627
216037900	0.993519735	-5.699273147
225037400	0.993466042	-5.762704459
234036900	0.994285578	-6.117919746
243036400	1.000038413	-0.031109212
252035900	1.001374137	-0.008693918
261035400	1.001146213	-0.029746704
270034900	0.998686519	-0.069830500
279034400	1.000690954	-0.112391967
288033900	1.000655355	0.034460196
297033400	0.997305815	-0.062886891
306032900	0.999757388	0.016088949
315032400	1.001125562	-0.183143704
324031900	0.999743149	-0.114938004
333031400	1.001555023	-0.296483399
342030900	0.997739400	-0.023708330
351030400	0.994267347	-0.103167886
360029900	1.005424021	-0.241621515
369029400	1.004071245	-0.029038854
378028900	1.000036593	-0.088310283
387028400	1.001081358	0.301270565
396027900	1.000163022	0.261725758
405027400	0.998095612	-0.278410842
414026900	0.999787840	-0.315661055
423026400	1.011366260	-0.040398614
432025900	1.002596153	0.131389225
441025400	1.004653756	-0.081575419
450024900	1.000199625	-0.226543100
459024300	0.988206198	0.210444777
468023800	0.992297696	-0.320703232
477023300	0.995599271	-0.003623460
486022800	1.005628126	-0.525013274
495022300	0.999161095	-0.985282976
504021800	1.001552306	-0.548297882
513021300	0.999413351	-0.537450306
522020800	1.000429320	-0.226188464
531020300	0.999296250	-0.520973460
540019800	0.997309875	-0.539301547
549019300	0.991722314	0.135450264
558018800	0.998198156	-0.165758111
567018300	1.000223775	-0.705556826
576017800	0.998959721	-0.002293415
585017300	0.993818106	-0.344871768
594016800	0.997243143	0.151660003
603016300	1.010941902	0.260027766
612015800	1.000308189	0.217175522
621015300	1.007210956	0.026250421
630014800	0.991378678	0.130633717
639014300	1.000074089	0.456697374
648013800	1.014336247	0.049366495
657013300	0.998176755	-0.311839503
666012800	1.013774284	-0.645733308
675012300	1.000258130	0.089988822
684011800	1.004309670	0.010331397
693011300	1.018241253	-0.345978852
702010800	0.994454279	0.029751504
711010300	0.993120231	-0.339583192
720009800	1.002015635	-0.846512639
729009300	1.002624516	-0.414453868
738008800	0.993798211	-0.740706553
747008300	0.982979661	-0.020964103
756007800	0.986406091	1.165714094
765007300	0.987459678	0.367784212
774006800	0.977676688	0.260845087
783006300	0.998368453	-0.303636065
792005800	0.995294622	0.596478950
801005300	1.006762817	-0.498479712
810004800	1.013081318	-0.006317074
819004300	1.002066493	0.055918809
828003800	0.987995637	0.659550820
837003300	0.991101493	0.321546378
846002800	1.016118162	0.273266852
855002300	1.011226638	0.422722343
864001800	0.990789519	1.469617970
873001300	1.009962231	0.595280638
882000800	0.988623255	0.740679415
891000300	0.982653804	1.056399155
899999800	0.991567777	0.570886026
