! File created by NanoVNA (https://gen111.taobao.com/)
! Start 1000000Hz  Stop 899999800Hz   Points 101
# HZ S MA R 50
!S - Parameter data, F S11
1000000	0.049586275	163.762242782
9989900	0.002596739	-10.529621970
18979900	0.001349355	-132.590754363
27969900	0.000827014	166.244769889
36959900	0.000534178	-133.461165671
45949900	0.000618101	141.423288404
54939900	0.000214943	-169.850389825
63929900	0.000737773	94.448350962
72919900	0.000709762	-10.518314829
81909900	0.000233048	75.803654243
90899900	0.000432290	-138.863536698
99889900	0.000408837	80.045365450
108879900	0.000582394	154.913712093
117869900	0.000332950	-119.941038282
126859900	0.000310117	-152.733692245
135849900	0.000502519	-5.017922017
144839900	0.001173927	-87.830158994
153829900	0.000684120	-119.963051380
162819900	0.000110725	141.292188557
171809900	0.000734394	-86.753662630
180799900	0.000229599	56.109840395
189789900	0.000551093	-137.334049852
198779900	0.000550596	35.760345948
207769900	0.000348352	136.870476197
216759900	0.000771713	175.426410298
225749900	0.000219481	120.962502975
234739900	0.000230065	-14.890894665
243729900	0.000673092	5.719224155
252719900	0.000956210	-153.971109005
261709900	0.002285774	-16.209745344
270699900	0.001826339	-31.299232697
279689900	0.000793393	99.228556851
288679900	0.000869709	-66.979641894
297669900	0.003732412	-54.586077575
306659900	0.005652744	167.277257490
315649900	0.003877185	90.288047653
324639900	0.002840507	113.255606465
333629900	0.000780414	-50.635702098
342619900	0.000559475	14.708774407
351609900	0.002092335	-100.083147892
360599900	0.005106992	40.003453449
369589900	0.004007148	-95.689970475
378579900	0.003251700	-84.354627161
387569900	0.000963603	17.279734540
396559900	0.005333987	10.501300513
405549900	0.003289140	2.121540617
414539900	0.003414223	86.035530758
423529900	0.002391850	5.744201479
432519900	0.001121901	-42.974735679
441509900	0.000668041	-137.035172286
450499900	0.003415651	-5.478485886
459489800	0.003274703	105.480729298
468479800	0.002008989	-91.243642331
477469800	0.000744696	-84.129020495
486459800	0.004418612	50.132357359
495449800	0.005765452	-127.392514705
504439800	0.001306597	177.148366508
513429800	0.000736760	70.379477681
522419800	0.001087383	-41.504252210
531409800	0.007007728	-0.931117142
540399800	0.000579933	108.052663536
549389800	0.004323859	73.222350778
558379800	0.000593928	39.945947454
567369800	0.001356013	86.612580739
576359800	0.006792096	56.066844211
585349800	0.008051484	84.696000317
594339800	0.004032879	100.598892811
603329800	0.001506348	-17.860946052
612319800	0.006579554	-72.118003859
621309800	0.001787042	7.574973329
630299800	0.004056647	-104.552447321
639289800	0.004199953	157.820223091
648279800	0.003492792	104.462621283
657269800	0.008963764	81.766081875
666259800	0.004722929	-126.394916042
675249800	0.011253368	-10.870858350
684239800	0.004525999	-83.934081970
693229800	0.014720132	-95.584398664
702219800	0.001094263	140.324487235
711209800	0.005906320	19.698913520
720199800	0.005417831	58.693844536
729189800	0.016665461	-79.295943814
738179800	0.004429126	102.966512804
747169800	0.008394614	-170.121862028
756159800	0.005434754	-11.778550038
765149800	0.003728913	-121.783724174
774139800	0.006085722	-6.277225027
783129800	0.008327294	-103.337156935
792119800	0.009078318	-0.220024281
801109800	0.016994800	40.543882685
810099800	0.005270016	27.256349639
819089800	0.007416237	-20.708985508
828079800	0.006557448	-68.364223600
837069800	0.017791769	-126.804401446
846059800	0.016290137	157.145873013
855049800	0.008035048	-169.144823612
864039800	0.012549280	-1.336682485
873029800	0.018515413	98.532781706
882019800	0.011064364	145.035295229
891009800	0.035874939	-37.912837308
899999800	0.011003851	173.278653577
