! File created by NanoVNA (https://gen111.taobao.com/)
! Start 50016Hz  Stop 899999916Hz   Points 101
# HZ S MA R 50
!S - Parameter data, F S11
50016	0.000355021	-63.935485623
9049416	0.000215234	-16.309664986
18048916	0.000430770	-13.150178826
27048416	0.000451330	-15.005022777
36047916	0.000347811	-18.437970214
45047416	0.000415081	18.734655229
54046916	0.000281054	-8.492904196
63046416	0.000364897	7.610300915
72045916	0.000439019	-23.758487179
81045416	0.000151980	-7.439762211
90044916	0.000273516	29.264742088
99044416	0.000075602	70.162447366
108043916	0.000354087	-28.310180791
117043416	0.000417255	-2.502967361
126042916	0.000403802	25.006898592
135042416	0.000215177	-19.441142592
144041916	0.000574288	20.889273639
153041416	0.000645256	5.005548458
162040916	0.000487476	29.085758537
171040416	0.000281972	29.897488216
180039916	0.000605056	26.819950183
189039416	0.000492528	-25.181954400
198038916	0.000364754	-9.064398745
207038416	0.000434384	49.073655628
216037916	0.000493547	4.141859975
225037416	0.000250275	-3.881977703
234036916	0.000184144	-43.846168662
243036416	0.000285695	16.577650712
252035916	0.000920081	40.183598419
261035416	0.000343020	62.871107332
270034916	0.000472410	16.660745835
279034416	0.000359946	-75.348743090
288033916	0.001104235	113.334172063
297033416	0.000897807	38.657396333
306032916	0.008975761	-63.394514302
315032416	0.003600810	64.139004557
324031916	0.000672834	-31.789604051
333031416	0.001091783	102.352322129
342030916	0.000884096	101.113808182
351030416	0.001788916	38.753630169
360029916	0.000509625	33.031526499
369029416	0.001240556	52.403510020
378028916	0.001900206	136.055469064
387028416	0.001844290	13.925279103
396027916	0.001662959	88.961427333
405027416	0.001817912	75.703726984
414026916	0.002484374	52.521823024
423026416	0.001515890	82.372894259
432025916	0.000905791	12.793984803
441025416	0.002257831	110.398514379
450024916	0.001628365	133.248799824
459024416	0.003028429	127.714822952
468023916	0.002616500	97.354212064
477023416	0.002564666	77.187167517
486022916	0.001466593	114.245961039
495022416	0.003625168	109.256529917
504021916	0.001247987	134.064972360
513021416	0.002613075	114.377184484
522020916	0.003263557	144.603173052
531020416	0.001749101	114.256940777
540019916	0.002413348	81.785207728
549019416	0.002406386	80.452349479
558018916	0.002612946	104.786322407
567018416	0.004870391	114.133640340
576017916	0.000872173	-161.415644455
585017416	0.001584709	88.659524653
594016916	0.003492632	102.859703767
603016416	0.002059251	-174.552478291
612015916	0.003827636	97.869479525
621015416	0.004253974	118.149676459
630014916	0.003695049	117.009067083
639014416	0.003466881	107.248470747
648013916	0.005140662	93.590263581
657013416	0.002352209	86.386391007
666012916	0.004345771	57.066450753
675012416	0.003738027	107.387576926
684011916	0.006077193	103.379921719
693011416	0.006828682	115.986267321
702010916	0.008602461	60.100188766
711010416	0.008808312	45.292173621
720009916	0.011187092	-5.792612099
729009416	0.012389126	-48.788462360
738008916	0.014727164	-63.530436788
747008416	0.015930820	-117.320956565
756007916	0.016696332	-140.452758017
765007416	0.020783013	169.159019301
774006916	0.015207477	136.446959680
783006416	0.009044584	116.650322159
792005916	0.004895664	86.235077905
801005416	0.007217704	135.942735972
810004916	0.007299038	141.559926449
819004416	0.005196103	136.046865706
828003916	0.005257277	166.922431896
837003416	0.003607872	115.978230354
846002916	0.003397943	135.545791127
855002416	0.005845188	170.236649871
864001916	0.002736776	121.625760057
873001416	0.006654088	141.419715021
882000916	0.003850648	143.723930670
891000416	0.006644483	-172.462782754
899999916	0.001968404	142.898724356
