! File created by NanoVNA (https://gen111.taobao.com/)
! Start 50016Hz  Stop 899999916Hz   Points 101
# HZ S MA R 50
!S - Parameter data, F S11
50016	0.000178843	-102.032239808
9049416	0.000284810	-62.651941875
18048916	0.000384270	-23.662127969
27048416	0.000225317	-54.299206400
36047916	0.000451043	-17.988773519
45047416	0.000243490	45.977919058
54046916	0.000226503	12.191273894
63046416	0.000367317	15.271850257
72045916	0.000342446	-13.553951440
81045416	0.000361582	39.201529593
90044916	0.000377311	13.965751368
99044416	0.000133670	40.010881860
108043916	0.000457471	-24.354191018
117043416	0.000437765	-4.165998299
126042916	0.000403577	25.889428610
135042416	0.000298543	-26.968448273
144041916	0.000650564	17.555285060
153041416	0.000408717	4.246988635
162040916	0.000283395	-43.515618046
171040416	0.000348497	6.934225394
180039916	0.000614440	42.986336340
189039416	0.000400795	-10.017089105
198038916	0.000497155	7.124730455
207038416	0.000221767	52.019241068
216037916	0.000550195	41.978558656
225037416	0.000213601	-36.956323917
234036916	0.000385797	15.043871940
243036416	0.000281048	75.702244188
252035916	0.000565490	59.674350236
261035416	0.000563934	47.934021406
270034916	0.000252894	14.156581753
279034416	0.000554470	-72.172302807
288033916	0.000849762	124.844939806
297033416	0.000376984	72.873213134
306032916	0.019530967	-23.112141476
315032416	0.005661658	140.748222939
324031916	0.001073287	100.954820064
333031416	0.001812858	108.793492024
342030916	0.000969803	58.493590053
351030416	0.001971754	61.942378935
360029916	0.001585240	111.335328018
369029416	0.001518425	100.652544840
378028916	0.001217738	140.043099274
387028416	0.001093332	12.786940302
396027916	0.001655531	82.202352282
405027416	0.001674539	115.519849757
414026916	0.000932920	75.831931589
423026416	0.001376304	44.563945703
432025916	0.000594267	68.095895095
441025416	0.001601192	80.958608099
450024916	0.002040423	120.529179978
459024416	0.000918114	127.935852953
468023916	0.001423855	102.728537884
477023416	0.003020836	98.186862930
486022916	0.001797937	80.261341135
495022416	0.003048669	87.817429072
504021916	0.000868448	170.705317010
513021416	0.001854435	90.490366316
522020916	0.002723361	139.733315569
531020416	0.002131702	91.855413819
540019916	0.001927764	75.261848369
549019416	0.001976425	68.398422014
558018916	0.002498973	123.050993030
567018416	0.004752190	122.242138851
576017916	0.001638579	-162.765735601
585017416	0.002809531	99.374858291
594016916	0.004030161	121.025193102
603016416	0.002006600	148.653473437
612015916	0.001974279	166.893681008
621015416	0.002816787	128.228414113
630014916	0.003767311	132.590553447
639014416	0.004349756	118.914469213
648013916	0.005066256	125.539271183
657013416	0.002614253	91.578486436
666012916	0.002087068	66.791146837
675012416	0.001927007	98.411271711
684011916	0.004691185	103.513184244
693011416	0.005096620	131.144087402
702010916	0.008617285	57.336311873
711010416	0.011415799	51.001084916
720009916	0.011696536	-1.905201517
729009416	0.011733002	-45.594806379
738008916	0.015567890	-77.585167685
747008416	0.015750075	-112.618122437
756007916	0.016258267	-139.197708486
765007416	0.019335943	173.245826639
774006916	0.017797710	142.109052315
783006416	0.011138042	123.527705325
792005916	0.006721631	114.009437490
801005416	0.005261637	114.079750498
810004916	0.006530589	154.026788113
819004416	0.004005428	151.099669966
828003916	0.002002849	-172.374041942
837003416	0.003031875	177.839752493
846002916	0.008641661	142.726575551
855002416	0.005469186	135.673370423
864001916	0.003343308	147.967769759
873001416	0.004516943	135.093496981
882000916	0.005362718	179.415612693
891000416	0.006997407	147.653625716
899999916	0.001808368	-48.245081265
