! File created by NanoVNA (https://gen111.taobao.com/)
! Start 50000Hz  Stop 6000000Hz   Points 101
# HZ S MA R 50
!S - Parameter data, F S11
50000	1.000143770	0.005404793
109500	1.000113047	-0.015514688
169000	0.999709381	0.021966252
228500	0.999868757	0.006706606
288000	1.000157493	0.010907284
347500	1.000396859	0.029346311
407000	1.000149970	0.005547863
466500	1.000329859	-0.006718292
526000	1.000003933	0.001472496
585500	0.999921940	0.023171993
645000	0.999499247	0.026200271
704500	1.000587590	0.007339059
764000	0.999958040	0.003749994
823500	0.999935091	-0.002612399
883000	0.999611806	0.008963680
942500	1.000076443	0.013971711
1002000	0.999993151	-0.006145473
1061500	0.999915199	0.010644969
1121000	1.000438857	0.017811744
1180500	0.999993694	-0.009198666
1240000	0.999826610	-0.001257001
1299500	1.000171422	0.000054021
1359000	0.999861778	0.003874590
1418500	0.999999732	-0.024241680
1478000	1.000148659	-0.006224777
1537500	0.999771017	0.011142971
1597000	0.999590696	-0.003696002
1656500	1.000410814	-0.011227824
1716000	0.999940932	-0.019775031
1775500	1.000101406	-0.022713812
1835000	1.000159263	0.001717282
1894500	1.000017898	0.010465861
1954000	0.999997326	0.007856017
2013500	0.999912703	0.023549992
2073000	1.000212791	0.004188863
2132500	1.000228763	0.001929051
2192000	1.000146156	0.006246332
2251500	1.000076936	-0.017494093
2311000	1.000281717	0.012979911
2370500	1.000221865	0.010502278
2430000	0.999763792	-0.006072438
2489500	1.000044031	-0.016899277
2549000	1.000070573	-0.003781484
2608500	1.000425538	-0.036206529
2668000	0.999377909	0.004489052
2727500	0.999786555	0.001015727
2787000	1.000324259	0.007923385
2846500	0.999956549	0.003039444
2906000	0.999625090	-0.020371532
2965500	1.000115872	-0.003064052
3025000	0.999885655	0.025165122
3084500	0.999877900	-0.013929159
3144000	1.000014325	-0.030299524
3203500	1.000840936	-0.015015254
3263000	1.000250226	0.006521836
3322500	0.999966806	0.006286988
3382000	0.999970919	-0.006884804
3441500	1.000008851	-0.013947961
3501000	1.000191474	-0.012642987
3560500	1.000292433	-0.009135203
3620000	0.999781671	0.004588847
3679500	1.000153189	-0.006339323
3739000	1.000175124	-0.006188064
3798500	1.000297331	-0.012566270
3858000	0.999909820	-0.003975998
3917500	0.999849532	-0.024811317
3977000	0.999952202	-0.006005458
4036500	1.000305893	0.003431369
4096000	1.000326752	0.000696145
4155500	0.999927231	0.007635963
4215000	0.999977233	0.003710960
4274500	1.000439449	-0.032666586
4334000	1.000015891	-0.015659662
4393500	1.000414030	0.010451981
4453000	1.000087141	-0.001366729
4512500	0.999775652	-0.005015136
4572000	0.999818212	-0.006754567
4631500	1.000411631	-0.003218125
4691000	1.000211848	0.009459993
4750500	1.000009552	0.010285296
4810000	0.999788117	0.008701291
4869500	1.000275158	-0.030690063
4929000	1.000603320	-0.003411510
4988500	1.000266271	-0.022485414
5048000	0.999607452	0.007581088
5107500	1.000026248	-0.012034777
5167000	1.000412387	-0.016821464
5226500	0.999804320	-0.004129026
5286000	1.000065462	-0.010674479
5345500	1.000459791	0.002177041
5405000	1.000294840	0.015348337
5464500	1.000340600	-0.011569520
5524000	1.000026705	-0.004384844
5583500	1.000321944	0.022831034
5643000	1.000152547	-0.045588344
5702500	1.000183826	-0.006090339
5762000	0.999593380	0.004390986
5821500	1.000921356	-0.026523105
5881000	1.000845579	-0.013556521
5940500	1.000000001	0.001928862
6000000	0.999716701	0.003555466
