! File created by NanoVNA (https://gen111.taobao.com/)
! Start 50016Hz  Stop 899999916Hz   Points 101
# HZ S MA R 50
!S - Parameter data, F S11
50016	0.999691111	-0.032609540
9049416	1.000079509	-0.039262710
18048916	0.999980686	-0.044097178
27048416	1.000303580	-0.045224101
36047916	1.000023768	-0.076023240
45047416	1.000469960	-0.080641404
54046916	1.000270639	-0.093991879
63046416	1.000002527	-0.097732134
72045916	1.000147468	-0.142790769
81045416	0.999902396	-0.107422946
90044916	1.000228466	-0.146729147
99044416	0.999931525	-0.174919190
108043916	1.000240088	-0.195829644
117043416	1.000138519	-0.207435841
126042916	1.000222676	-0.256298680
135042416	0.999793861	-0.251479132
144041916	0.999998050	-0.277865879
153041416	1.000299909	-0.283634309
162040916	1.000267813	-0.281938724
171040416	1.000178143	-0.299178194
180039916	1.001910970	-0.334685481
189039416	0.999906410	-0.344842075
198038916	1.000216144	-0.368089322
207038416	1.000011552	-0.380422724
216037916	1.000177692	-0.389225193
225037416	0.999770338	-0.421980724
234036916	0.999922304	-0.454367120
243036416	0.999419338	-0.434488331
252035916	1.000352211	-0.454970812
261035416	1.000059398	-0.469180707
270034916	1.000625168	-0.479789863
279034416	0.999984816	-0.488299532
288033916	1.001115242	-0.540256515
297033416	1.000304392	-0.501496524
306032916	1.006650292	-0.141332082
315032416	0.999924195	-0.850730432
324031916	0.998586702	-0.674765238
333031416	1.001297603	-0.628343490
342030916	1.001833952	-0.461243881
351030416	0.998684153	-0.648058586
360029916	1.000538910	-0.718927066
369029416	1.002025545	-0.661084467
378028916	1.001075198	-0.689703230
387028416	0.993539670	-0.429197087
396027916	0.999654922	-0.815208285
405027416	1.002147857	-0.709501541
414026916	0.998736942	-0.847821241
423026416	1.001021044	-0.679863479
432025916	0.999655191	-0.761455613
441025416	1.002423093	-0.853235033
450024916	1.000959511	-0.774416349
459024416	0.998612586	-0.649988844
468023916	1.001586108	-0.706781064
477023416	1.000594766	-0.886319286
486022916	0.998296904	-0.849254177
495022416	1.005740740	-0.688329584
504021916	1.002880973	-0.816087628
513021416	0.998385720	-1.216434134
522020916	1.001058228	-1.274066082
531020416	0.998738356	-1.001978602
540019916	0.997566136	-1.026811519
549019416	0.997456833	-0.874180235
558018916	1.002502719	-1.028295503
567018416	1.001054517	-1.127167036
576017916	1.002158061	-1.042352277
585017416	0.998677457	-1.094225347
594016916	1.004266836	-1.050085715
603016416	0.997897006	-1.076991728
612015916	1.002669169	-1.245001887
621015416	1.003687165	-1.198257372
630014916	1.002365183	-0.883917865
639014416	1.000427611	-0.908109253
648013916	0.997318324	-1.396520034
657013416	0.999088469	-1.502108138
666012916	1.003447425	-1.262095878
675012416	0.999371328	-1.336108383
684011916	1.002397839	-1.249527035
693011416	0.998842462	-1.471818610
702010916	1.003947194	-1.504554263
711010416	1.003052429	-1.256934405
720009916	1.002081149	-1.168457682
729009416	0.999471165	-1.280518249
738008916	1.001766048	-1.270123003
747008416	1.009343889	-1.655991645
756007916	1.001769149	-1.326398358
765007416	1.000714341	-1.460288129
774006916	0.994265472	-1.160000117
783006416	1.002223434	-1.159507825
792005916	0.998934154	-1.389499415
801005416	1.006497201	-2.027837476
810004916	0.994984927	-1.751152267
819004416	0.999112575	-1.480740474
828003916	1.007017261	-1.281558543
837003416	1.000261219	-1.576054388
846002916	0.999971350	-1.341803701
855002416	1.002196435	-1.068202335
864001916	0.993465677	-1.717428561
873001416	1.002300107	-1.870413533
882000916	1.006147641	-1.903044426
891000416	0.993880439	-2.037759434
899999916	1.007044569	-2.012790629
