! File created by NanoVNA (https://gen111.taobao.com/)
! Start 50016Hz  Stop 899999916Hz   Points 101
# HZ S MA R 50
!S - Parameter data, F S11
50016	0.000246183	-81.508730198
9049416	0.000348813	21.288599539
18048916	0.000416511	-23.270353596
27048416	0.000292505	-5.238462756
36047916	0.000418557	-9.881087681
45047416	0.000202044	37.657256369
54046916	0.000176352	-1.177173809
63046416	0.000470234	17.763494674
72045916	0.000497360	-4.382669074
81045416	0.000314851	38.498922077
90044916	0.000359294	15.486227774
99044416	0.000319892	-23.106704665
108043916	0.000364633	-23.671782445
117043416	0.000353409	5.651373040
126042916	0.000508546	10.741513649
135042416	0.000269625	-42.385743127
144041916	0.000510722	28.424112276
153041416	0.000495978	-5.675453704
162040916	0.000509550	-12.492645838
171040416	0.000323009	9.334070552
180039916	0.000286463	44.675983660
189039416	0.000548212	-5.066537093
198038916	0.000250265	-25.844957389
207038416	0.000156695	54.928238417
216037916	0.000456604	28.586594922
225037416	0.000110403	60.335259810
234036916	0.000281314	84.675073983
243036416	0.000400850	57.833044819
252035916	0.000514485	26.518683532
261035416	0.000364205	62.048971415
270034916	0.000665262	8.300195265
279034416	0.000481722	-75.842800606
288033916	0.001043400	119.769653146
297033416	0.000434411	102.764138760
306032916	0.005449524	95.372717132
315032416	0.004947117	143.279042554
324031916	0.000914336	-140.934500980
333031416	0.001886492	92.631865392
342030916	0.001273077	53.080037968
351030416	0.001300053	24.591558504
360029916	0.000856412	87.760082621
369029416	0.002124645	79.499996498
378028916	0.000932619	106.352554393
387028416	0.001230915	10.061112628
396027916	0.001354979	99.354731134
405027416	0.001219033	102.291863415
414026916	0.000656215	120.929690722
423026416	0.001393564	62.592481339
432025916	0.000362482	63.050610351
441025416	0.001550308	95.626530835
450024916	0.002665586	124.345779434
459024416	0.002105234	134.185293815
468023916	0.001988382	126.369767660
477023416	0.002764454	75.583624554
486022916	0.000990737	117.343940241
495022416	0.003019082	90.271859170
504021916	0.000594116	99.250712651
513021416	0.002853881	90.865106635
522020916	0.002532890	120.137069891
531020416	0.003373936	113.161483911
540019916	0.003444664	78.540320222
549019416	0.001345077	57.472232812
558018916	0.001721407	132.777547096
567018416	0.003621831	121.684535936
576017916	0.002065447	-160.716371174
585017416	0.003645355	93.540192814
594016916	0.004978953	107.774746612
603016416	0.001169873	158.351207676
612015916	0.003043844	120.448644596
621015416	0.003242987	120.759072688
630014916	0.004301529	123.676287915
639014416	0.003316476	129.512717152
648013916	0.006190232	103.445919726
657013416	0.004157654	79.807562278
666012916	0.004760739	80.433473357
675012416	0.002304486	137.574683388
684011916	0.003650044	79.552690121
693011416	0.006357422	122.204285905
702010916	0.009314039	69.196749489
711010416	0.008031787	45.028807636
720009916	0.012772439	-1.055531703
729009416	0.011787225	-51.345917903
738008916	0.015516469	-81.335739618
747008416	0.016936139	-113.403612638
756007916	0.018208680	-136.506727167
765007416	0.020207334	169.023615492
774006916	0.014917902	148.775324361
783006416	0.007547639	124.168173068
792005916	0.009160563	107.523713793
801005416	0.006001313	133.166880070
810004916	0.006220799	175.423158807
819004416	0.004916965	163.181742302
828003916	0.004223819	-178.479044337
837003416	0.006054256	141.897263240
846002916	0.000667630	90.070372191
855002416	0.004394465	146.361523921
864001916	0.004502822	133.704390577
873001416	0.004029120	165.916833447
882000916	0.002008074	-170.771446584
891000416	0.010122442	177.778822669
899999916	0.003499602	45.893048178
