! File created by NanoVNA (https://gen111.taobao.com/)
! Start 50016Hz  Stop 899999916Hz   Points 101
# HZ S MA R 50
!S - Parameter data, F S11
50016	0.000620000	-136.134342714
9049416	0.000120576	90.326453253
18048916	0.000038630	155.538737653
27048416	0.000152598	52.626293549
36047916	0.000159357	-168.064752087
45047416	0.000104540	71.989335920
54046916	0.000075328	-99.328274422
63046416	0.000065495	103.515774776
72045916	0.000140477	100.435775878
81045416	0.000110896	69.814460848
90044916	0.000153116	32.283753670
99044416	0.000156822	-173.418655602
108043916	0.000110803	-167.629245964
117043416	0.000127753	-54.520558031
126042916	0.000197883	-83.305589956
135042416	0.000087788	-160.816864513
144041916	0.000120204	-164.050479279
153041416	0.000074896	-179.406346020
162040916	0.000050273	33.833257682
171040416	0.000054131	-16.228620040
180039916	0.000124696	-77.507175210
189039416	0.000138079	115.969171464
198038916	0.000124178	-22.700396812
207038416	0.000142229	7.856643417
216037916	0.000101168	-148.557789315
225037416	0.000095421	123.658925441
234036916	0.000055113	127.229602960
243036416	0.000154050	-118.567597096
252035916	0.000184006	175.166022825
261035416	0.000051034	112.365356893
270034916	0.000276657	-28.501785381
279034416	0.000202048	-50.462346633
288033916	0.000098614	6.564052122
297033416	0.000154368	14.289381773
306032916	0.006213254	-161.221951586
315032416	0.001185845	-165.152027610
324031916	0.000596538	21.590272140
333031416	0.000572469	97.965913265
342030916	0.000354571	149.513906932
351030416	0.000330019	49.227511964
360029916	0.000643556	-115.750121296
369029416	0.000341318	-120.069798551
378028916	0.000486600	50.917718483
387028416	0.000291612	-28.440229209
396027916	0.000409851	90.091007737
405027416	0.000825668	116.119342120
414026916	0.000548758	-46.409018942
423026416	0.000535451	-70.545868225
432025916	0.000441134	-120.924330201
441025416	0.000636893	52.613753022
450024916	0.000292475	99.235464771
459024416	0.000991980	6.453185426
468023916	0.000656928	176.491481364
477023416	0.000438995	-166.469035967
486022916	0.000562799	124.767801650
495022416	0.000568338	-79.786477506
504021916	0.000311724	81.464444762
513021416	0.000396233	143.470610996
522020916	0.000294119	32.617418518
531020416	0.000552148	78.424753617
540019916	0.000434025	28.002218520
549019416	0.000747542	67.415509939
558018916	0.000626425	68.909889003
567018416	0.000208534	44.833889702
576017916	0.001173128	178.833225439
585017416	0.000964800	-4.993511363
594016916	0.000540482	-160.479381502
603016416	0.000869848	-114.721319666
612015916	0.001048179	-90.543897030
621015416	0.000305082	155.670036301
630014916	0.001255785	-51.305112907
639014416	0.001578586	-112.520370160
648013916	0.000814268	70.413402268
657013416	0.000434870	-134.950157262
666012916	0.001068017	2.463740509
675012416	0.000661201	114.214686970
684011916	0.001287290	8.201179881
693011416	0.001162354	178.329424742
702010916	0.001693415	30.576682058
711010416	0.000949605	164.084697266
720009916	0.001114999	15.286558721
729009416	0.001593121	136.855827504
738008916	0.000702989	147.885986032
747008416	0.000636116	-135.229603011
756007916	0.000376552	179.797171810
765007416	0.001145527	-163.376243703
774006916	0.001544500	120.221026632
783006416	0.000247077	-14.596767209
792005916	0.000977062	-140.195847957
801005416	0.001622084	168.407114808
810004916	0.001186717	-10.763752414
819004416	0.000311625	-169.955413456
828003916	0.001367272	17.736997443
837003416	0.001481437	-69.942219648
846002916	0.001505309	-153.231296537
855002416	0.004137381	28.850920062
864001916	0.000963783	36.460065775
873001416	0.001466497	128.510975925
882000916	0.001128724	-146.220236923
891000416	0.001746446	178.641659805
899999916	0.002436077	-151.981107534
