! File created by NanoVNA (https://gen111.taobao.com/)
! Start 50016Hz  Stop 899999716Hz   Points 101
# HZ S MA R 50
!S - Parameter data, F S11
50016	0.999075066	-0.021674128
9049416	1.000880729	-0.008499620
18048916	0.999939888	-0.050400690
27048416	1.000243415	-0.055368288
36047916	1.000463948	-0.067842553
45047416	1.000034896	-0.099816644
54046916	1.000071953	-0.117336719
63046416	1.000655297	-0.125172378
72045916	0.999857529	-0.135265970
81045416	1.000144401	-0.161507102
90044916	0.999263831	-0.160931895
99044416	1.000373334	-0.189218170
108043916	0.999684165	-0.173815329
117043416	1.000148435	-0.198135944
126042916	0.999464365	-0.265882284
135042416	1.000040219	-0.249270889
144041916	0.999892878	-0.297929829
153041416	0.999334473	-0.316818973
162040916	0.999962454	-0.290125073
171040416	0.999802925	-0.289177190
180039916	0.999815072	-0.393912526
189039416	1.000250746	-0.315757673
198038916	1.000465488	-0.354677780
207038416	0.999938821	-0.400865344
216037916	0.999531791	-0.362571593
225037416	1.000479163	-0.371601908
234036916	1.000288223	-0.403224303
243036416	0.999892144	-0.424528950
252035916	0.999900832	-0.484689796
261035416	1.000692019	-0.470542229
270034916	1.000217571	-0.463147989
279034416	0.999666232	-0.542328420
288033916	0.999747541	-0.524373395
297033416	0.999042739	-0.534680571
306032816	1.026002169	-2.266140920
315032316	0.992607397	-0.825809491
324031816	1.002320922	-0.566730357
333031316	1.005773782	-0.582487572
342030816	1.000370029	-0.745337045
351030316	0.999982199	-0.691363913
360029816	0.998036668	-0.520060676
369029316	1.000142701	-0.643456041
378028816	1.003422098	-0.632972375
387028316	1.001380437	-0.708345492
396027816	0.994516653	-0.823104266
405027316	0.999326320	-0.740846569
414026816	0.999264764	-0.504068774
423026316	1.002096313	-0.690335558
432025816	0.990101094	-0.949509401
441025316	1.005220259	-0.707959678
450024816	1.007782321	-1.313341108
459024316	0.999399590	-0.689985992
468023816	1.001796146	-0.919931722
477023316	0.997857746	-0.786173793
486022816	1.002605596	-0.892049883
495022316	1.003260967	-1.046204699
504021816	0.997409745	-1.103367672
513021316	0.999420249	-0.708347620
522020816	1.000327958	-1.054119299
531020316	1.003094262	-0.865287219
540019816	0.999471367	-0.867511398
549019316	1.002614902	-0.401397228
558018816	0.990319631	-1.234331506
567018316	1.001849551	-1.027047923
576017816	0.999873774	-0.902557427
585017316	0.997174221	-1.389345643
594016816	1.002104424	-0.924458749
603016216	0.993356148	-1.148256470
612015716	1.001040633	-0.848348725
621015216	0.998021133	-1.122478038
630014716	1.003332634	-1.536235889
639014216	0.998934618	-1.099699693
648013716	0.992899794	-0.738128646
657013216	1.004080060	-1.350031331
666012716	1.003784356	-1.391876895
675012216	1.014730823	-1.241776768
684011716	0.995734241	-1.789181352
693011216	0.998833578	-1.219346828
702010716	1.002549747	-1.434804177
711010216	1.000070204	-0.988864892
720009716	0.998888962	-1.248555697
729009216	1.006644204	-0.968603554
738008716	0.994545546	-1.221292550
747008216	1.000805142	-1.120381619
756007716	1.000372645	-1.539984009
765007216	1.007597448	-1.377597380
774006716	1.015575562	-1.886263925
783006216	1.001883170	-0.805814626
792005716	0.992551979	-1.549095972
801005216	1.001575188	-1.675377210
810004716	0.991600885	-0.796933411
819004216	0.994183372	-1.626724755
828003716	0.999979530	-1.017339760
837003216	0.991833710	-1.544612118
846002716	1.001813469	-1.160068822
855002216	0.993447761	-2.148671483
864001716	1.000136066	-1.773954756
873001216	1.008460195	-0.919041695
882000716	0.992318829	-1.612206212
891000216	0.999299643	-2.120710828
899999716	1.004758716	-1.563264626
