! File created by NanoVNA (https://gen111.taobao.com/)
! Start 50016Hz  Stop 869999716Hz   Points 101
# HZ S MA R 50
!S - Parameter data, F S11
50016	0.999399179	0.092614439
8749416	0.999239445	0.034401801
17448916	0.999488456	0.054989802
26148416	0.999765432	0.046832414
34847916	0.999459184	0.015602000
43547416	0.999243627	0.021421792
52246916	0.999422538	-0.017795574
60946416	0.999469207	-0.026445612
69645916	0.999454198	-0.027767972
78345416	0.999443162	-0.038672869
87044916	0.999231711	-0.049481358
95744416	0.999352203	-0.058629858
104443916	0.999416262	-0.082813499
113143416	0.999334221	-0.099091349
121842916	0.999361234	-0.101459083
130542416	0.999399226	-0.130792078
139241916	0.999362517	-0.141058710
147941416	0.999073415	-0.148746859
156640916	0.998678917	-0.187705318
165340416	0.998299713	-0.209457895
174039916	0.998129330	-0.235439616
182739416	0.997946922	-0.259755017
191438916	0.997984100	-0.288879722
200138416	0.997975806	-0.294162315
208837916	0.997349899	-0.327707712
217537416	0.997008086	-0.343730793
226236916	0.996161723	-0.400057444
234936416	0.996133096	-0.389978572
243635916	0.995890780	-0.432827772
252335416	0.995458244	-0.461594608
261034916	0.994646417	-0.491021290
269734416	0.994074301	-0.507906148
278433916	0.993743197	-0.552900869
287133416	0.992348456	-0.543629523
295832816	0.992844332	-0.595880555
304532316	1.020390365	0.546792466
313231816	1.001060617	-0.399470120
321931316	0.988761658	-0.443034902
330630816	0.992616600	-0.299893120
339330316	0.991523403	-0.487167642
348029816	0.991856629	-0.536286273
356729316	0.990347429	-0.419684119
365428816	0.991016800	-0.461313815
374128316	0.989938073	-0.435551823
382827816	0.992336018	-0.576149278
391527316	0.987563418	-0.525840659
400226816	0.981907441	-0.608239122
408926316	0.985801530	-0.379191205
417625816	0.986949760	-0.573794960
426325316	0.985468602	-0.691928569
435024816	0.986652297	-0.707424520
443724316	0.982641825	-0.542195221
452423816	0.981939546	-0.527381516
461123316	0.982568544	-0.470458873
469822816	0.981300106	-0.573195940
478522316	0.978842676	-0.663768518
487221816	0.979101276	-0.704748386
495921316	0.978921778	-0.625001503
504620816	0.977054194	-0.667761091
513320316	0.977376856	-0.572523873
522019816	0.979347295	-0.616169530
530719316	0.974966829	-0.540973408
539418816	0.972552293	-0.569106602
548118316	0.975940335	-0.572306647
556817816	0.974974495	-0.634726199
565517316	0.977752354	-0.832716909
574216816	0.974253709	-0.643200749
582916216	0.975295467	-0.596829271
591615716	0.972449296	-0.732395167
600315216	0.975885908	-0.799935820
609014716	0.973749783	-0.740514201
617714216	0.970956708	-0.810895806
626413716	0.974544216	-0.994487570
635113216	0.969684384	-0.985684608
643812716	0.967696067	-0.747847403
652512216	0.968966042	-0.991405679
661211716	0.975605843	-0.793575682
669911216	0.975207626	-1.233428038
678610716	0.968120811	-1.152706108
687310216	0.970101092	-0.764174502
696009716	0.970156519	-0.786501392
704709216	0.976539121	-0.720608037
713408716	0.978602878	-0.750875792
722108216	0.984400395	-1.158005938
730807716	0.982267725	-1.675971914
739507216	0.977227328	-2.182210080
748206716	0.969005887	-2.083259735
756906216	0.967075997	-1.871209069
765605716	0.962801541	-1.595109055
774305216	0.963581925	-1.196537097
783004716	0.961802280	-1.050591714
791704216	0.963770503	-1.360752366
800403716	0.970392221	-1.450375010
809103216	0.975724238	-1.486938830
817802716	0.980583850	-1.647673063
826502216	0.966573585	-1.911294012
835201716	0.977514397	-1.873980189
843901216	0.971009682	-1.853253945
852600716	0.979319078	-1.889730681
861300216	0.971100836	-2.212665752
869999716	0.977104334	-2.323147593
