! File created by NanoVNA (https://gen111.taobao.com/)
! Start 50000Hz  Stop 900000000Hz   Points 101
# HZ S MA R 50
!S - Parameter data, F S11
50000	0.000457798	-117.950357588
9049500	0.000136976	27.478157625
18049000	0.000042508	-24.651440576
27048500	0.000148847	15.904418270
36048000	0.000090777	4.016904058
45047500	0.000093439	-151.841486138
54047000	0.000052215	56.221370827
63046500	0.000055690	131.415497291
72046000	0.000101913	80.600619442
81045500	0.000243833	-11.584313645
90045000	0.000162936	64.735447212
99044500	0.000121972	-65.217313498
108044000	0.000060115	-111.361592190
117043500	0.000066250	-99.689098453
126043000	0.000136866	151.557025364
135042500	0.000138981	21.165997323
144042000	0.000081440	122.495041834
153041500	0.000120172	34.015763748
162041000	0.000053767	-107.900484998
171040500	0.000024384	-167.795124196
180040000	0.000109011	141.203110553
189039500	0.000183957	144.779278727
198039000	0.000037852	-65.634841257
207038500	0.000210304	-9.687299672
216038000	0.000115809	-155.383706240
225037500	0.000323197	50.239984137
234037000	0.000083750	-30.163561957
243036500	0.000086408	-179.633310957
252036000	0.000215411	-90.214383720
261035500	0.000055966	-35.378324580
270035000	0.000121333	-119.756185578
279034500	0.000069860	-85.495177376
288034000	0.000560407	-71.927031244
297033500	0.000391158	-131.858031458
306033000	0.006531816	178.759895282
315032500	0.003378899	-149.146407838
324032000	0.000969215	110.858640714
333031500	0.003189472	-101.085310140
342031000	0.002775538	-92.608334442
351030500	0.002436730	44.164888880
360030000	0.002350631	-121.132842302
369029500	0.002925042	-103.020119152
378029000	0.000701069	138.041490334
387028500	0.000720442	-150.724783562
396028000	0.000588063	41.067038432
405027500	0.001559370	-130.278820221
414027000	0.002682440	40.697107090
423026500	0.000091203	-10.173417994
432026000	0.001584530	-106.807193103
441025500	0.001321615	-119.253560590
450025000	0.000626451	84.955456152
459024500	0.000410056	3.589268780
468024000	0.002021256	45.646355335
477023500	0.000343285	-129.904535186
486023000	0.001546630	-111.982745168
495022500	0.002735583	-58.658045328
504022000	0.002238110	-58.992111401
513021500	0.000977754	-56.716005648
522021000	0.002413839	-6.446983913
531020500	0.004377432	-139.324948137
540020000	0.001856993	-57.858441822
549019500	0.001833473	78.245457523
558019000	0.000650221	-153.957142483
567018500	0.001738755	163.427233007
576018000	0.002947049	-27.771318006
585017500	0.003584537	-11.032374372
594017000	0.002400343	36.367708267
603016500	0.004343178	26.196494302
612016000	0.000805967	-0.683896740
621015500	0.001624010	131.276179481
630015000	0.001562718	-164.915803577
639014500	0.001829795	41.873167253
648014000	0.001481241	26.957664110
657013500	0.002861765	-96.875993602
666013000	0.002713665	-9.570116872
675012500	0.002071511	132.182950390
684012000	0.006012964	160.793776473
693011500	0.001573733	-21.387460902
702011000	0.001863005	-150.437709854
711010500	0.001768667	117.043533406
720010000	0.005148356	-94.728524527
729009500	0.002920799	57.134951155
738009000	0.003768165	-135.006859594
747008500	0.005815400	170.267125474
756008000	0.005305601	-57.839897325
765007500	0.002981227	-16.871855694
774007000	0.003944965	-135.072279294
783006500	0.005247104	146.200330063
792006000	0.007426679	86.651875357
801005500	0.011936085	125.023847413
810005000	0.000901150	32.954880519
819004500	0.007774433	-122.616515067
828004000	0.001973060	-27.913918144
837003500	0.006455039	-57.582702100
846003000	0.006211727	-77.181637196
855002500	0.001862857	-175.285672725
864002000	0.001298181	-99.659361705
873001500	0.001900097	-31.044642292
882001000	0.002838527	-140.316760369
891000500	0.001794083	-76.948271870
900000000	0.005467630	-30.414573606
