! This is a Touchstone .s1p format file
! It should be saved with .s1p extension 
! HEWLETT PACKARD,8720D,0,7.74  
! Date = 21 Mar 2018
! Time = 01:37:42
! S11 measured = FALSE
! S21 measured = FALSE
! S12 measured = FALSE
! S22 measured = TRUE
! Start frequency = 0.050000000 GHz
! Centre frequency  = 3.524999936 GHz
! Stop frequency  = 7.000000000 GHz
! IF bandwidth = 300 Hz
! Smoothing = OFF
! Smoothing aperture = 1.000000 %
! Averaging = OFF
! Averaging factor = 16
! Source power = On
! Source power = Auto mode
! Output power level = 5.000000 dBm
! Retrace power = Off
! Testset switching = Continuous
! Number of sweeps for test set switching (0=hold, 1=continuous,2-999 = number of sweeps) = 1
! Step sweep = On (check)
! List frequency sweep = Off (check)
! IFBW setting for a list-frequency table in swept list mode = Disabled (Check)
! Power setting for a list-frequency table in swept list mode = Disabled (Check)
! Measurement mode = Chop A and B
! Port extensions = OFF
! Port extension 1 = 0.000000 ps
! Port extension 2 = 57.970000 ps
! Points  = 1601
! Calibration kit = 3.5 mm D
! Power = 5.000000 dBm
! Frequency magS22 angS22
! Magnitudes are in log form
! Angles are in degrees
# MHz S DB R 50
50.00000 -11.06396 -6.61670
54.34375 -11.12598 -7.13428
58.68750 -11.12061 -7.76465
63.03125 -11.10205 -8.37158
67.37500 -11.10938 -8.69043
71.71875 -11.12354 -9.45654
76.06250 -11.14062 -10.02100
80.40625 -11.10889 -10.57715
84.75000 -11.11035 -11.03174
89.09375 -11.12598 -11.70752
93.43750 -11.13379 -12.19092
97.78125 -11.11279 -13.01367
102.12500 -11.10645 -13.45996
106.46875 -11.12402 -14.09424
110.81250 -11.12256 -14.53809
115.15625 -11.12695 -15.13818
119.50000 -11.12988 -15.67480
123.84375 -11.12500 -16.21094
128.18750 -11.11621 -16.74609
132.53125 -11.11963 -17.33789
136.87500 -11.11377 -18.00391
141.21875 -11.12158 -18.54785
145.56250 -11.12842 -19.09863
149.90625 -11.12305 -19.71680
154.25000 -11.11914 -20.23340
158.59375 -11.11963 -20.83789
162.93750 -11.12012 -21.39355
167.28125 -11.12207 -21.94727
171.62500 -11.12109 -22.48633
175.96875 -11.11621 -23.10742
180.31250 -11.12402 -23.66797
184.65625 -11.12646 -24.25684
189.00000 -11.12256 -24.77051
193.34375 -11.12500 -25.38281
197.68750 -11.12402 -25.92090
202.03125 -11.12598 -26.49512
206.37500 -11.12646 -27.06152
210.71875 -11.12695 -27.65625
215.06250 -11.12451 -28.20898
219.40625 -11.12842 -28.75293
223.75000 -11.12500 -29.30664
228.09375 -11.13086 -29.89453
232.43750 -11.13672 -30.44238
236.78125 -11.13086 -30.98047
241.12500 -11.12646 -31.61621
245.46875 -11.13232 -32.17773
249.81250 -11.13086 -32.74219
254.15625 -11.12891 -33.29492
258.50000 -11.13037 -33.89844
262.84375 -11.13330 -34.43555
267.18750 -11.13672 -35.01367
271.53125 -11.12744 -35.54492
275.87500 -11.13525 -36.15234
280.21875 -11.12451 -36.73047
284.56250 -11.13916 -37.28125
288.90625 -11.13770 -37.86133
293.25000 -11.13574 -38.41992
297.59375 -11.13965 -38.93555
